(1694453897.393423) can0 024#40E5
(1694453897.393503) can0 039#40E5
(1694453897.393654) can0 043#3F9C
(1694453897.393794) can0 062#40CD
(1694453897.393900) can0 077#1E
(1694453897.403323) can0 08D#03
(1694453897.403433) can0 0A2#00
(1694453897.403559) can0 0B4#01
(1694453897.406322) can0 01A#00E5
(1694453897.406449) can0 02F#40A9
(1694453897.406586) can0 058#72CE
(1694453897.406708) can0 06D#01
(1694453897.406820) can0 083#07
(1694453897.406943) can0 098#01
(1694453897.440372) can0 266#0A
(1694453897.440487) can0 27B#01
(1694453897.440609) can0 290#01
(1694453897.440738) can0 2A6#0200
(1694453897.440872) can0 2BB#CD00
(1694453897.440985) can0 477#00
(1694453897.455264) can0 1BB#03
(1694453897.458237) can0 1B8#01
(1694453897.458347) can0 1A7#02
(1694453897.458463) can0 1B1#01
(1694453897.458582) can0 1C9#00
(1694453897.460281) can0 146#000E
(1694453897.460388) can0 15A#01
(1694453897.460521) can0 16F#80D1
(1694453897.460642) can0 183#E2
(1694453897.460751) can0 18D#00
(1694453897.460864) can0 198#00
(1694453897.460983) can0 19A#01
(1694453897.461095) can0 1D3#01
(1694453897.493257) can0 024#C0E2
(1694453897.493382) can0 039#C0E2
(1694453897.493517) can0 043#809C
(1694453897.493653) can0 062#80D3
(1694453897.493773) can0 077#1E
(1694453897.503274) can0 08D#03
(1694453897.503378) can0 0A2#00
(1694453897.503493) can0 0B4#01
(1694453897.506237) can0 01A#40E2
(1694453897.506379) can0 02F#00AD
(1694453897.506501) can0 058#A6D4
(1694453897.506617) can0 06D#01
(1694453897.506735) can0 083#07
(1694453897.506852) can0 098#01
(1694453897.593217) can0 024#40E0
(1694453897.593343) can0 039#40E0
(1694453897.593476) can0 043#C29C
(1694453897.593617) can0 062#80D9
(1694453897.593719) can0 077#1E
(1694453897.603212) can0 08D#03
(1694453897.603316) can0 0A2#00
(1694453897.603432) can0 0B4#01
(1694453897.606189) can0 01A#C0DF
(1694453897.606320) can0 02F#C0B0
(1694453897.606457) can0 058#83DA
(1694453897.606569) can0 06D#01
(1694453897.606686) can0 083#07
(1694453897.606803) can0 098#01
(1694453897.693133) can0 024#80DD
(1694453897.693262) can0 039#80DD
(1694453897.693391) can0 043#039D
(1694453897.693534) can0 062#00DF
(1694453897.693639) can0 077#1E
(1694453897.703127) can0 08D#03
(1694453897.703235) can0 0A2#00
(1694453897.703350) can0 0B4#01
(1694453897.706128) can0 01A#40DD
(1694453897.706270) can0 02F#80B4
(1694453897.706399) can0 058#06E0
(1694453897.706513) can0 06D#01
(1694453897.706632) can0 083#07
(1694453897.706748) can0 098#01
(1694453897.793094) can0 024#00DB
(1694453897.793220) can0 039#00DB
(1694453897.793347) can0 043#459D
(1694453897.793487) can0 062#40E4
(1694453897.793590) can0 077#1E
(1694453897.803117) can0 08D#03
(1694453897.803233) can0 0A2#00
(1694453897.803340) can0 0B4#01
(1694453897.806095) can0 01A#C0DA
(1694453897.806226) can0 02F#00B8
(1694453897.806363) can0 058#28E5
(1694453897.806469) can0 06D#01
(1694453897.806592) can0 083#07
(1694453897.806708) can0 098#01
(1694453897.893080) can0 024#80D8
(1694453897.893207) can0 039#80D8
(1694453897.893332) can0 043#879D
(1694453897.893473) can0 062#00E9
(1694453897.893575) can0 077#1E
(1694453897.903018) can0 08D#03
(1694453897.903120) can0 0A2#00
(1694453897.903232) can0 0B4#01
(1694453897.906036) can0 01A#00D8
(1694453897.906179) can0 02F#C0BB
(1694453897.906299) can0 058#E3E9
(1694453897.906415) can0 06D#01
(1694453897.906532) can0 083#07
(1694453897.906650) can0 098#01
(1694453897.952016) can0 25C#0E
(1694453897.952109) can0 271#00
(1694453897.952234) can0 286#00
(1694453897.952349) can0 29C#01
(1694453897.952467) can0 2B1#01
(1694453897.955002) can0 1BB#03
(1694453897.957963) can0 1B8#01
(1694453897.958078) can0 1A7#02
(1694453897.958195) can0 1B1#01
(1694453897.958311) can0 1C9#00
(1694453897.960140) can0 146#8014
(1694453897.960256) can0 15A#01
(1694453897.960387) can0 16F#00EC
(1694453897.960499) can0 183#D6
(1694453897.960616) can0 18D#00
(1694453897.960731) can0 198#00
(1694453897.960849) can0 19A#01
(1694453897.960957) can0 1D3#01
(1694453897.993980) can0 024#00D6
(1694453897.994104) can0 039#00D6
(1694453897.994240) can0 043#C89D
(1694453897.994377) can0 062#40ED
(1694453897.994488) can0 077#1E
(1694453898.003030) can0 08D#03
(1694453898.003131) can0 0A2#00
(1694453898.003211) can0 0B4#01
(1694453898.005961) can0 01A#80D5
(1694453898.006086) can0 02F#40BF
(1694453898.006219) can0 058#33EE
(1694453898.006330) can0 06D#01
(1694453898.006445) can0 083#07
(1694453898.006566) can0 098#01
(1694453898.093940) can0 024#40D3
(1694453898.094054) can0 039#40D3
(1694453898.094186) can0 043#0A9E
(1694453898.094325) can0 062#40F1
(1694453898.094434) can0 077#1E
(1694453898.102900) can0 08D#03
(1694453898.103011) can0 0A2#00
(1694453898.103144) can0 0B4#01
(1694453898.105894) can0 01A#00D3
(1694453898.106081) can0 02F#C0C2
(1694453898.106216) can0 058#14F2
(1694453898.106325) can0 06D#01
(1694453898.106445) can0 083#07
(1694453898.106565) can0 098#01
(1694453898.194063) can0 024#C0D0
(1694453898.194220) can0 039#C0D0
(1694453898.194346) can0 043#4B9E
(1694453898.194484) can0 062#C0F4
(1694453898.194597) can0 077#1E
(1694453898.202834) can0 08D#03
(1694453898.202959) can0 0A2#00
(1694453898.203063) can0 0B4#01
(1694453898.205850) can0 01A#80D0
(1694453898.205984) can0 02F#00C6
(1694453898.206121) can0 058#82F5
(1694453898.206234) can0 06D#01
(1694453898.206351) can0 083#07
(1694453898.206469) can0 098#01
(1694453898.293935) can0 024#40CE
(1694453898.294024) can0 039#40CE
(1694453898.294162) can0 043#8D9E
(1694453898.294294) can0 062#C0F7
(1694453898.294413) can0 077#1E
(1694453898.302778) can0 08D#03
(1694453898.302885) can0 0A2#00
(1694453898.302998) can0 0B4#01
(1694453898.306809) can0 01A#00CE
(1694453898.306924) can0 02F#40C9
(1694453898.307059) can0 058#7AF8
(1694453898.307174) can0 06D#01
(1694453898.307293) can0 083#07
(1694453898.307409) can0 098#01
(1694453898.393972) can0 024#C0CB
(1694453898.394100) can0 039#C0CB
(1694453898.394225) can0 043#CE9E
(1694453898.394369) can0 062#40FA
(1694453898.394476) can0 077#1E
(1694453898.403725) can0 08D#03
(1694453898.403834) can0 0A2#00
(1694453898.403951) can0 0B4#01
(1694453898.406720) can0 01A#40CB
(1694453898.406857) can0 02F#80CC
(1694453898.406984) can0 058#F7FA
(1694453898.407100) can0 06D#01
(1694453898.407224) can0 083#07
(1694453898.407338) can0 098#01
(1694453898.440742) can0 266#0A
(1694453898.440853) can0 27B#01
(1694453898.440970) can0 290#01
(1694453898.441103) can0 2A6#0200
(1694453898.441238) can0 2BB#F700
(1694453898.441350) can0 477#00
(1694453898.455699) can0 1BB#03
(1694453898.458693) can0 1B8#01
(1694453898.458808) can0 1A7#02
(1694453898.458899) can0 1B1#01
(1694453898.459035) can0 1C9#00
(1694453898.460688) can0 146#C01A
(1694453898.460804) can0 15A#01
(1694453898.460942) can0 16F#C0FB
(1694453898.461043) can0 183#C9
(1694453898.461168) can0 18D#00
(1694453898.461276) can0 198#00
(1694453898.461389) can0 19A#01
(1694453898.461504) can0 1D3#01
(1694453898.493840) can0 024#00C9
(1694453898.493973) can0 039#00C9
(1694453898.494110) can0 043#109F
(1694453898.494239) can0 062#80FC
(1694453898.494350) can0 077#1E
(1694453898.503659) can0 08D#03
(1694453898.503766) can0 0A2#00
(1694453898.503883) can0 0B4#01
(1694453898.506669) can0 01A#C0C8
(1694453898.506800) can0 02F#C0CF
(1694453898.506935) can0 058#F8FC
(1694453898.507051) can0 06D#01
(1694453898.507169) can0 083#07
(1694453898.507285) can0 098#01
(1694453898.593767) can0 024#80C6
(1694453898.593891) can0 039#80C6
(1694453898.594028) can0 043#519F
(1694453898.594164) can0 062#00FE
(1694453898.594276) can0 077#1E
(1694453898.603604) can0 08D#03
(1694453898.603720) can0 0A2#00
(1694453898.603829) can0 0B4#01
(1694453898.606612) can0 01A#40C6
(1694453898.606753) can0 02F#00D3
(1694453898.606886) can0 058#7CFE
(1694453898.606994) can0 06D#01
(1694453898.607110) can0 083#07
(1694453898.607226) can0 098#01
(1694453898.693615) can0 024#00C4
(1694453898.693758) can0 039#00C4
(1694453898.693879) can0 043#939F
(1694453898.694021) can0 062#00FF
(1694453898.694125) can0 077#1E
(1694453898.703562) can0 08D#03
(1694453898.703676) can0 0A2#00
(1694453898.703785) can0 0B4#01
(1694453898.706549) can0 01A#C0C3
(1694453898.706689) can0 02F#00D6
(1694453898.706817) can0 058#7FFF
(1694453898.706930) can0 06D#01
(1694453898.707054) can0 083#07
(1694453898.707169) can0 098#01
(1694453898.793596) can0 024#80C1
(1694453898.793725) can0 039#80C1
(1694453898.793860) can0 043#D49F
(1694453898.793997) can0 062#C0FF
(1694453898.794111) can0 077#1E
(1694453898.803488) can0 08D#03
(1694453898.803594) can0 0A2#00
(1694453898.803709) can0 0B4#01
(1694453898.806516) can0 01A#00C1
(1694453898.806647) can0 02F#C0D8
(1694453898.806785) can0 058#0200
(1694453898.806898) can0 06D#01
(1694453898.807018) can0 083#07
(1694453898.807136) can0 098#01
(1694453898.893589) can0 024#C0BE
(1694453898.893680) can0 039#C0BE
(1694453898.893822) can0 043#16A0
(1694453898.893957) can0 062#C0FF
(1694453898.894068) can0 077#06
(1694453898.903450) can0 08D#03
(1694453898.903555) can0 0A2#00
(1694453898.903670) can0 0B4#01
(1694453898.906460) can0 01A#80BE
(1694453898.906591) can0 02F#C0DB
(1694453898.906729) can0 058#0300
(1694453898.906841) can0 06D#01
(1694453898.906959) can0 083#03
(1694453898.907074) can0 098#01
(1694453898.952490) can0 25C#06
(1694453898.952575) can0 271#00
(1694453898.952699) can0 286#00
(1694453898.952828) can0 29C#01
(1694453898.952925) can0 2B1#01
(1694453898.955397) can0 1BB#03
(1694453898.958412) can0 1B8#01
(1694453898.958521) can0 1A7#00
(1694453898.958634) can0 1B1#01
(1694453898.958755) can0 1C9#00
(1694453898.960482) can0 146#4021
(1694453898.960592) can0 15A#01
(1694453898.960729) can0 16F#80FF
(1694453898.960850) can0 183#BC
(1694453898.960958) can0 18D#00
(1694453898.961076) can0 198#00
(1694453898.961193) can0 19A#01
(1694453898.961300) can0 1D3#01
(1694453898.993391) can0 024#40BC
(1694453898.993523) can0 039#40BC
(1694453898.993655) can0 043#57A0
(1694453898.993791) can0 062#40FF
(1694453898.993909) can0 077#06
(1694453899.003385) can0 08D#03
(1694453899.003496) can0 0A2#00
(1694453899.003614) can0 0B4#01
(1694453899.006418) can0 01A#00BC
(1694453899.006552) can0 02F#80DE
(1694453899.006689) can0 058#83FF
(1694453899.006807) can0 06D#01
(1694453899.006925) can0 083#03
(1694453899.007044) can0 098#01
(1694453899.093354) can0 024#C0B9
(1694453899.093477) can0 039#C0B9
(1694453899.093605) can0 043#99A0
(1694453899.093742) can0 062#40FE
(1694453899.093857) can0 077#06
(1694453899.103329) can0 08D#03
(1694453899.103438) can0 0A2#00
(1694453899.103558) can0 0B4#01
(1694453899.106323) can0 01A#80B9
(1694453899.106457) can0 02F#00E1
(1694453899.106593) can0 058#82FE
(1694453899.106714) can0 06D#01
(1694453899.106826) can0 083#03
(1694453899.106946) can0 098#01
(1694453899.193330) can0 024#40B7
(1694453899.193416) can0 039#40B7
(1694453899.193569) can0 043#DAA0
(1694453899.193698) can0 062#00FD
(1694453899.193814) can0 077#06
(1694453899.203270) can0 08D#03
(1694453899.203376) can0 0A2#00
(1694453899.203494) can0 0B4#01
(1694453899.206269) can0 01A#C0B6
(1694453899.206409) can0 02F#C0E3
(1694453899.206532) can0 058#01FD
(1694453899.206652) can0 06D#01
(1694453899.206766) can0 083#03
(1694453899.206883) can0 098#01
(1694453899.293380) can0 024#C0B4
(1694453899.293470) can0 039#C0B4
(1694453899.293606) can0 043#1CA1
(1694453899.293726) can0 062#00FB
(1694453899.293841) can0 077#06
(1694453899.303203) can0 08D#03
(1694453899.303311) can0 0A2#00
(1694453899.303426) can0 0B4#01
(1694453899.306201) can0 01A#40B4
(1694453899.306332) can0 02F#00E6
(1694453899.306470) can0 058#03FB
(1694453899.306581) can0 06D#01
(1694453899.306698) can0 083#03
(1694453899.306815) can0 098#01
(1694453899.393269) can0 024#00B2
(1694453899.393370) can0 039#00B2
(1694453899.393510) can0 043#5EA1
(1694453899.393641) can0 062#80F8
(1694453899.393759) can0 077#06
(1694453899.403146) can0 08D#03
(1694453899.403257) can0 0A2#00
(1694453899.403377) can0 0B4#01
(1694453899.406140) can0 01A#C0B1
(1694453899.406276) can0 02F#80E8
(1694453899.406408) can0 058#88F8
(1694453899.406528) can0 06D#01
(1694453899.406646) can0 083#03
(1694453899.406763) can0 098#01
(1694453899.440159) can0 266#02
(1694453899.440276) can0 27B#01
(1694453899.440393) can0 290#01
(1694453899.440533) can0 2A6#0200
(1694453899.440654) can0 2BB#F200
(1694453899.440770) can0 477#00
(1694453899.455147) can0 1BB#03
(1694453899.458119) can0 1B8#01
(1694453899.458227) can0 1A7#00
(1694453899.458345) can0 1B1#01
(1694453899.458459) can0 1C9#00
(1694453899.460240) can0 146#8027
(1694453899.460344) can0 15A#01
(1694453899.460476) can0 16F#C0F6
(1694453899.460591) can0 183#AF
(1694453899.460707) can0 18D#00
(1694453899.460821) can0 198#00
(1694453899.460937) can0 19A#01
(1694453899.461053) can0 1D3#01
(1694453899.493256) can0 024#80AF
(1694453899.493338) can0 039#80AF
(1694453899.493501) can0 043#9FA1
(1694453899.493626) can0 062#C0F5
(1694453899.493743) can0 077#06
(1694453899.503105) can0 08D#03
(1694453899.503194) can0 0A2#00
(1694453899.503324) can0 0B4#01
(1694453899.506104) can0 01A#40AF
(1694453899.506247) can0 02F#C0EA
(1694453899.506368) can0 058#93F5
(1694453899.506484) can0 06D#01
(1694453899.506602) can0 083#03
(1694453899.506718) can0 098#01
(1694453899.593135) can0 024#00AD
(1694453899.593259) can0 039#00AD
(1694453899.593385) can0 043#E1A1
(1694453899.593524) can0 062#40F2
(1694453899.593638) can0 077#06
(1694453899.603021) can0 08D#03
(1694453899.603133) can0 0A2#00
(1694453899.603248) can0 0B4#01
(1694453899.606041) can0 01A#80AC
(1694453899.606177) can0 02F#00ED
(1694453899.606308) can0 058#27F2
(1694453899.606429) can0 06D#01
(1694453899.606548) can0 083#03
(1694453899.606656) can0 098#01
(1694453899.693048) can0 024#80AA
(1694453899.693128) can0 039#80AA
(1694453899.693285) can0 043#22A2
(1694453899.693413) can0 062#80EE
(1694453899.693529) can0 077#06
(1694453899.702981) can0 08D#03
(1694453899.703089) can0 0A2#00
(1694453899.703213) can0 0B4#01
(1694453899.705957) can0 01A#00AA
(1694453899.706085) can0 02F#00EF
(1694453899.706215) can0 058#48EE
(1694453899.706331) can0 06D#01
(1694453899.706449) can0 083#03
(1694453899.706565) can0 098#01
(1694453899.793939) can0 024#C0A7
(1694453899.794061) can0 039#C0A7
(1694453899.794188) can0 043#64A2
(1694453899.794326) can0 062#40EA
(1694453899.794449) can0 077#06
(1694453899.802900) can0 08D#03
(1694453899.803015) can0 0A2#00
(1694453899.803136) can0 0B4#01
(1694453899.805907) can0 01A#80A7
(1694453899.806042) can0 02F#C0F0
(1694453899.806177) can0 058#FAE9
(1694453899.806297) can0 06D#01
(1694453899.806417) can0 083#03
(1694453899.806525) can0 098#01
(1694453899.893924) can0 024#40A5
(1694453899.894043) can0 039#40A5
(1694453899.894171) can0 043#A5A2
(1694453899.894311) can0 062#80E5
(1694453899.894421) can0 077#06
(1694453899.902869) can0 08D#03
(1694453899.902976) can0 0A2#00
(1694453899.903091) can0 0B4#01
(1694453899.905864) can0 01A#00A5
(1694453899.905996) can0 02F#C0F2
(1694453899.906135) can0 058#41E5
(1694453899.906247) can0 06D#01
(1694453899.906365) can0 083#03
(1694453899.906482) can0 098#01
(1694453899.951926) can0 25C#06
(1694453899.952035) can0 271#00
(1694453899.952151) can0 286#00
(1694453899.952265) can0 29C#01
(1694453899.952379) can0 2B1#01
(1694453899.954818) can0 1BB#03
(1694453899.958818) can0 1B8#01
(1694453899.958913) can0 1A7#00
(1694453899.959048) can0 1B1#01
(1694453899.959160) can0 1C9#00
(1694453899.960848) can0 146#002E
(1694453899.960961) can0 15A#01
(1694453899.961092) can0 16F#40E2
(1694453899.961208) can0 183#A3
(1694453899.961323) can0 18D#00
(1694453899.961438) can0 198#00
(1694453899.961552) can0 19A#01
(1694453899.961666) can0 1D3#01
(1694453899.993839) can0 024#C0A2
(1694453899.993961) can0 039#C0A2
(1694453899.994095) can0 043#E7A2
(1694453899.994229) can0 062#80E0
(1694453899.994345) can0 077#06
(1694453900.002794) can0 08D#03
(1694453900.002906) can0 0A2#00
(1694453900.003021) can0 0B4#01
(1694453900.006802) can0 01A#80A2
(1694453900.006934) can0 02F#80F4
(1694453900.007066) can0 058#21E0
(1694453900.007182) can0 06D#01
(1694453900.007302) can0 083#03
(1694453900.007417) can0 098#01
(1694453900.093780) can0 024#40A0
(1694453900.093909) can0 039#40A0
(1694453900.094040) can0 043#28A3
(1694453900.094176) can0 062#00DB
(1694453900.094291) can0 077#06
(1694453900.102774) can0 08D#03
(1694453900.102885) can0 0A2#00
(1694453900.102999) can0 0B4#01
(1694453900.106767) can0 01A#C09F
(1694453900.106900) can0 02F#00F6
(1694453900.107035) can0 058#A1DA
(1694453900.107148) can0 06D#01
(1694453900.107266) can0 083#03
(1694453900.107382) can0 098#01
(1694453900.193710) can0 024#809D
(1694453900.193831) can0 039#809D
(1694453900.193960) can0 043#6AA3
(1694453900.194092) can0 062#40D5
(1694453900.194208) can0 077#06
(1694453900.203699) can0 08D#03
(1694453900.203811) can0 0A2#00
(1694453900.203925) can0 0B4#01
(1694453900.206706) can0 01A#409D
(1694453900.206842) can0 02F#80F7
(1694453900.206975) can0 058#C4D4
(1694453900.207091) can0 06D#01
(1694453900.207209) can0 083#03
(1694453900.207326) can0 098#01
(1694453900.293693) can0 024#009B
(1694453900.293772) can0 039#009B
(1694453900.293921) can0 043#ABA3
(1694453900.294051) can0 062#00CF
(1694453900.294169) can0 077#06
(1694453900.303613) can0 08D#03
(1694453900.303725) can0 0A2#00
(1694453900.303839) can0 0B4#01
(1694453900.306640) can0 01A#C09A
(1694453900.306778) can0 02F#C0F8
(1694453900.306907) can0 058#93CE
(1694453900.307023) can0 06D#01
(1694453900.307142) can0 083#03
(1694453900.307258) can0 098#01
(1694453900.393666) can0 024#8098
(1694453900.393785) can0 039#8098
(1694453900.393914) can0 043#EDA3
(1694453900.394047) can0 062#C0C8
(1694453900.394163) can0 077#06
(1694453900.403606) can0 08D#03
(1694453900.403718) can0 0A2#00
(1694453900.403831) can0 0B4#01
(1694453900.406564) can0 01A#4098
(1694453900.406697) can0 02F#00FA
(1694453900.406831) can0 058#12C8
(1694453900.406946) can0 06D#01
(1694453900.407064) can0 083#03
(1694453900.407180) can0 098#01
(1694453900.440567) can0 266#02
(1694453900.440680) can0 27B#01
(1694453900.440795) can0 290#01
(1694453900.440931) can0 2A6#0100
(1694453900.441068) can0 2BB#C100
(1694453900.441183) can0 477#00
(1694453900.455549) can0 1BB#03
(1694453900.458525) can0 1B8#01
(1694453900.458638) can0 1A7#00
(1694453900.458756) can0 1B1#01
(1694453900.458874) can0 1C9#00
(1694453900.460563) can0 146#4034
(1694453900.460675) can0 15A#01
(1694453900.460807) can0 16F#40C4
(1694453900.460922) can0 183#96
(1694453900.461037) can0 18D#00
(1694453900.461152) can0 198#00
(1694453900.461266) can0 19A#01
(1694453900.461380) can0 1D3#01
(1694453900.493636) can0 024#0096
(1694453900.493713) can0 039#0096
(1694453900.493863) can0 043#2EA4
(1694453900.493989) can0 062#00C2
(1694453900.494105) can0 077#06
(1694453900.503569) can0 08D#03
(1694453900.503643) can0 0A2#00
(1694453900.503769) can0 0B4#01
(1694453900.506514) can0 01A#8095
(1694453900.506650) can0 02F#40FB
(1694453900.506783) can0 058#48C1
(1694453900.506900) can0 06D#01
(1694453900.507021) can0 083#03
(1694453900.507137) can0 098#01
(1694453900.593618) can0 024#4093
(1694453900.593725) can0 039#4093
(1694453900.593855) can0 043#70A4
(1694453900.593990) can0 062#00BB
(1694453900.594105) can0 077#06
(1694453900.603443) can0 08D#03
(1694453900.603556) can0 0A2#00
(1694453900.603669) can0 0B4#01
(1694453900.606494) can0 01A#0093
(1694453900.606629) can0 02F#40FC
(1694453900.606759) can0 058#3CBA
(1694453900.606875) can0 06D#01
(1694453900.606993) can0 083#03
(1694453900.607110) can0 098#01
(1694453900.693476) can0 024#C090
(1694453900.693612) can0 039#C090
(1694453900.693738) can0 043#B1A4
(1694453900.693869) can0 062#C0B3
(1694453900.693997) can0 077#06
(1694453900.703401) can0 08D#03
(1694453900.703512) can0 0A2#00
(1694453900.703620) can0 0B4#01
(1694453900.706413) can0 01A#8090
(1694453900.706541) can0 02F#00FD
(1694453900.706672) can0 058#F5B2
(1694453900.706788) can0 06D#01
(1694453900.706911) can0 083#03
(1694453900.707035) can0 098#01
(1694453900.793437) can0 024#408E
(1694453900.793639) can0 039#408E
(1694453900.793768) can0 043#F3A4
(1694453900.793899) can0 062#40AC
(1694453900.794017) can0 077#06
(1694453900.803350) can0 08D#03
(1694453900.803455) can0 0A2#00
(1694453900.803583) can0 0B4#01
(1694453900.806325) can0 01A#008E
(1694453900.806458) can0 02F#C0FD
(1694453900.806589) can0 058#7BAB
(1694453900.806704) can0 06D#01
(1694453900.806822) can0 083#03
(1694453900.806939) can0 098#01
(1694453900.893443) can0 024#C08B
(1694453900.893569) can0 039#C08B
(1694453900.893702) can0 043#35A5
(1694453900.893836) can0 062#80A4
(1694453900.893955) can0 077#06
(1694453900.903347) can0 08D#03
(1694453900.903458) can0 0A2#00
(1694453900.903573) can0 0B4#01
(1694453900.906266) can0 01A#408B
(1694453900.906401) can0 02F#80FE
(1694453900.906532) can0 058#D5A3
(1694453900.906647) can0 06D#01
(1694453900.906765) can0 083#03
(1694453900.906881) can0 098#01
(1694453900.952300) can0 25C#06
(1694453900.952406) can0 271#00
(1694453900.952521) can0 286#00
(1694453900.952635) can0 29C#01
(1694453900.952749) can0 2B1#01
(1694453900.955257) can0 1BB#03
(1694453900.958230) can0 1B8#01
(1694453900.958343) can0 1A7#00
(1694453900.958459) can0 1B1#01
(1694453900.958573) can0 1C9#00
(1694453900.960313) can0 146#C03A
(1694453900.960424) can0 15A#01
(1694453900.960555) can0 16F#809F
(1694453900.960669) can0 183#89
(1694453900.960787) can0 18D#00
(1694453900.960901) can0 198#00
(1694453900.961016) can0 19A#01
(1694453900.961130) can0 1D3#01
(1694453900.993326) can0 024#4089
(1694453900.993472) can0 039#4089
(1694453900.993597) can0 043#76A5
(1694453900.993712) can0 062#C09C
(1694453900.993829) can0 077#06
(1694453901.003238) can0 08D#03
(1694453901.003324) can0 0A2#00
(1694453901.003472) can0 0B4#01
(1694453901.006267) can0 01A#C088
(1694453901.006402) can0 02F#00FF
(1694453901.006534) can0 058#0B9C
(1694453901.006649) can0 06D#01
(1694453901.006767) can0 083#03
(1694453901.006884) can0 098#01
(1694453901.093403) can0 024#8086
(1694453901.093516) can0 039#8086
(1694453901.093648) can0 043#B8A5
(1694453901.093800) can0 062#0095
(1694453901.093898) can0 077#06
(1694453901.103182) can0 08D#03
(1694453901.103294) can0 0A2#00
(1694453901.103407) can0 0B4#01
(1694453901.106178) can0 01A#4086
(1694453901.106314) can0 02F#40FF
(1694453901.106445) can0 058#2594
(1694453901.106561) can0 06D#01
(1694453901.106679) can0 083#03
(1694453901.106796) can0 098#01
(1694453901.193135) can0 024#0084
(1694453901.193264) can0 039#0084
(1694453901.193410) can0 043#F9A5
(1694453901.193534) can0 062#008D
(1694453901.193649) can0 077#06
(1694453901.203116) can0 08D#03
(1694453901.203225) can0 0A2#00
(1694453901.203334) can0 0B4#01
(1694453901.206118) can0 01A#C083
(1694453901.206259) can0 02F#80FF
(1694453901.206379) can0 058#2A8C
(1694453901.206503) can0 06D#01
(1694453901.206625) can0 083#03
(1694453901.206755) can0 098#01
(1694453901.293092) can0 024#8081
(1694453901.293214) can0 039#8081
(1694453901.293343) can0 043#3BA6
(1694453901.293477) can0 062#0085
(1694453901.293591) can0 077#06
(1694453901.303082) can0 08D#03
(1694453901.303193) can0 0A2#00
(1694453901.303306) can0 0B4#01
(1694453901.306062) can0 01A#0081
(1694453901.306200) can0 02F#C0FF
(1694453901.306332) can0 058#2384
(1694453901.306449) can0 06D#01
(1694453901.306566) can0 083#03
(1694453901.306682) can0 098#01
(1694453901.393029) can0 024#007F
(1694453901.393166) can0 039#007F
(1694453901.393299) can0 043#7CA6
(1694453901.393448) can0 062#007D
(1694453901.393553) can0 077#1A
(1694453901.403043) can0 08D#02
(1694453901.403151) can0 0A2#00
(1694453901.403265) can0 0B4#01
(1694453901.406021) can0 01A#807E
(1694453901.406157) can0 02F#C0FF
(1694453901.406291) can0 058#187C
(1694453901.406407) can0 06D#01
(1694453901.406524) can0 083#05
(1694453901.406640) can0 098#01
(1694453901.440025) can0 266#0A
(1694453901.440139) can0 27B#00
(1694453901.440255) can0 290#01
(1694453901.440392) can0 2A6#0100
(1694453901.440523) can0 2BB#7600
(1694453901.440640) can0 477#00
(1694453901.454987) can0 1BB#01
(1694453901.457948) can0 1B8#01
(1694453901.458063) can0 1A7#02
(1694453901.458178) can0 1B1#01
(1694453901.458292) can0 1C9#00
(1694453901.461077) can0 146#4041
(1694453901.461189) can0 15A#00
(1694453901.461319) can0 16F#8077
(1694453901.461435) can0 183#7C
(1694453901.461551) can0 18D#00
(1694453901.461665) can0 198#00
(1694453901.461781) can0 19A#00
(1694453901.461896) can0 1D3#00
(1694453901.494040) can0 024#407C
(1694453901.494157) can0 039#407C
(1694453901.494295) can0 043#BEA6
(1694453901.494439) can0 062#0075
(1694453901.494544) can0 077#1A
(1694453901.503025) can0 08D#02
(1694453901.503138) can0 0A2#00
(1694453901.503252) can0 0B4#01
(1694453901.505954) can0 01A#007C
(1694453901.506093) can0 02F#80FF
(1694453901.506226) can0 058#1174
(1694453901.506342) can0 06D#01
(1694453901.506458) can0 083#05
(1694453901.506574) can0 098#01
(1694453901.593925) can0 024#C079
(1694453901.594061) can0 039#C079
(1694453901.594189) can0 043#FFA6
(1694453901.594318) can0 062#006D
(1694453901.594433) can0 077#1A
(1694453901.602892) can0 08D#02
(1694453901.603001) can0 0A2#00
(1694453901.603115) can0 0B4#01
(1694453901.605911) can0 01A#8079
(1694453901.606047) can0 02F#40FF
(1694453901.606180) can0 058#166C
(1694453901.606295) can0 06D#01
(1694453901.606409) can0 083#05
(1694453901.606524) can0 098#01
(1694453901.693873) can0 024#4077
(1694453901.694001) can0 039#4077
(1694453901.694135) can0 043#41A7
(1694453901.694266) can0 062#0065
(1694453901.694379) can0 077#1A
(1694453901.702813) can0 08D#02
(1694453901.702946) can0 0A2#00
(1694453901.703040) can0 0B4#01
(1694453901.705825) can0 01A#0077
(1694453901.705969) can0 02F#00FF
(1694453901.706089) can0 058#2F64
(1694453901.706206) can0 06D#01
(1694453901.706322) can0 083#05
(1694453901.706438) can0 098#01
(1694453901.750857) can0 420#01
(1694453901.750938) can0 457#00
(1694453901.751061) can0 461#00
(1694453901.751174) can0 46C#00
(1694453901.793812) can0 024#C074
(1694453901.793940) can0 039#C074
(1694453901.794082) can0 043#82A7
(1694453901.794215) can0 062#405D
(1694453901.794328) can0 077#1A
(1694453901.802766) can0 08D#02
(1694453901.802874) can0 0A2#00
(1694453901.802996) can0 0B4#01
(1694453901.806813) can0 01A#4074
(1694453901.806948) can0 02F#80FE
(1694453901.807079) can0 058#645C
(1694453901.807199) can0 06D#01
(1694453901.807306) can0 083#05
(1694453901.807422) can0 098#01
(1694453901.893736) can0 024#0072
(1694453901.893866) can0 039#0072
(1694453901.893998) can0 043#C4A7
(1694453901.894138) can0 062#8055
(1694453901.894248) can0 077#1A
(1694453901.903726) can0 08D#02
(1694453901.903830) can0 0A2#00
(1694453901.903947) can0 0B4#01
(1694453901.906715) can0 01A#C071
(1694453901.906856) can0 02F#C0FD
(1694453901.906978) can0 058#BD54
(1694453901.907093) can0 06D#01
(1694453901.907209) can0 083#05
(1694453901.907326) can0 098#01
(1694453901.952805) can0 25C#0A
(1694453901.952893) can0 271#00
(1694453901.952996) can0 286#00
(1694453901.953121) can0 29C#01
(1694453901.953215) can0 2B1#00
(1694453901.955670) can0 1BB#01
(1694453901.958707) can0 1B8#01
(1694453901.958823) can0 1A7#02
(1694453901.958931) can0 1B1#01
(1694453901.959082) can0 1C9#00
(1694453901.960696) can0 146#8047
(1694453901.960814) can0 15A#00
(1694453901.960941) can0 16F#8050
(1694453901.961061) can0 183#70
(1694453901.961174) can0 18D#00
(1694453901.961289) can0 198#00
(1694453901.961405) can0 19A#00
(1694453901.961521) can0 1D3#00
(1694453901.993703) can0 024#806F
(1694453901.993826) can0 039#806F
(1694453901.993961) can0 043#05A8
(1694453901.994099) can0 062#004E
(1694453901.994212) can0 077#1A
(1694453902.003652) can0 08D#02
(1694453902.003759) can0 0A2#00
(1694453902.003885) can0 0B4#01
(1694453902.006659) can0 01A#406F
(1694453902.006796) can0 02F#00FD
(1694453902.006918) can0 058#424D
(1694453902.007041) can0 06D#01
(1694453902.007154) can0 083#05
(1694453902.007273) can0 098#01
(1694453902.010665) can0 3D4#4F
(1694453902.010773) can0 3DE#00
(1694453902.010892) can0 482#00
(1694453902.093680) can0 024#006D
(1694453902.093802) can0 039#006D
(1694453902.093940) can0 043#47A8
(1694453902.094067) can0 062#C046
(1694453902.094180) can0 077#1A
(1694453902.103589) can0 08D#02
(1694453902.103698) can0 0A2#00
(1694453902.103814) can0 0B4#01
(1694453902.106589) can0 01A#C06C
(1694453902.106732) can0 02F#40FC
(1694453902.106856) can0 058#FB45
(1694453902.106971) can0 06D#01
(1694453902.107089) can0 083#05
(1694453902.107205) can0 098#01
(1694453902.193569) can0 024#806A
(1694453902.193698) can0 039#806A
(1694453902.193824) can0 043#88A8
(1694453902.193970) can0 062#C03F
(1694453902.194072) can0 077#1A
(1694453902.203568) can0 08D#02
(1694453902.203653) can0 0A2#00
(1694453902.203776) can0 0B4#01
(1694453902.206578) can0 01A#006A
(1694453902.206708) can0 02F#40FB
(1694453902.206856) can0 058#EE3E
(1694453902.206967) can0 06D#01
(1694453902.207080) can0 083#05
(1694453902.207209) can0 098#01
(1694453902.293558) can0 024#C067
(1694453902.293650) can0 039#C067
(1694453902.293784) can0 043#CAA8
(1694453902.293910) can0 062#C038
(1694453902.294022) can0 077#1A
(1694453902.303483) can0 08D#02
(1694453902.303606) can0 0A2#00
(1694453902.303717) can0 0B4#01
(1694453902.306477) can0 01A#8067
(1694453902.306614) can0 02F#00FA
(1694453902.306747) can0 058#2238
(1694453902.306857) can0 06D#01
(1694453902.306976) can0 083#05
(1694453902.307097) can0 098#01
(1694453902.393456) can0 024#4065
(1694453902.393590) can0 039#4065
(1694453902.393714) can0 043#0CA9
(1694453902.393849) can0 062#4032
(1694453902.393961) can0 077#1A
(1694453902.403415) can0 08D#02
(1694453902.403523) can0 0A2#00
(1694453902.403637) can0 0B4#01
(1694453902.406455) can0 01A#0065
(1694453902.406600) can0 02F#00F9
(1694453902.406721) can0 058#A031
(1694453902.406837) can0 06D#01
(1694453902.406953) can0 083#05
(1694453902.407069) can0 098#01
(1694453902.440445) can0 266#0A
(1694453902.440556) can0 27B#00
(1694453902.440667) can0 290#01
(1694453902.440807) can0 2A6#0000
(1694453902.440938) can0 2BB#2E00
(1694453902.441050) can0 477#00
(1694453902.455396) can0 1BB#01
(1694453902.458388) can0 1B8#01
(1694453902.458504) can0 1A7#02
(1694453902.458615) can0 1B1#01
(1694453902.458728) can0 1C9#00
(1694453902.460419) can0 146#004E
(1694453902.460534) can0 15A#00
(1694453902.460664) can0 16F#002E
(1694453902.460775) can0 183#63
(1694453902.460892) can0 18D#00
(1694453902.461008) can0 198#00
(1694453902.461124) can0 19A#00
(1694453902.461241) can0 1D3#00
(1694453902.493415) can0 024#C062
(1694453902.493538) can0 039#C062
(1694453902.493670) can0 043#4DA9
(1694453902.493807) can0 062#002C
(1694453902.493920) can0 077#1A
(1694453902.503392) can0 08D#02
(1694453902.503509) can0 0A2#00
(1694453902.503629) can0 0B4#01
(1694453902.506356) can0 01A#8062
(1694453902.506494) can0 02F#80F7
(1694453902.506627) can0 058#6C2B
(1694453902.506741) can0 06D#01
(1694453902.506862) can0 083#05
(1694453902.506970) can0 098#01
(1694453902.593364) can0 024#4060
(1694453902.593488) can0 039#4060
(1694453902.593621) can0 043#8FA9
(1694453902.593755) can0 062#4026
(1694453902.593869) can0 077#1A
(1694453902.603331) can0 08D#02
(1694453902.603439) can0 0A2#00
(1694453902.603560) can0 0B4#01
(1694453902.606308) can0 01A#C05F
(1694453902.606442) can0 02F#00F6
(1694453902.606570) can0 058#8E25
(1694453902.606687) can0 06D#01
(1694453902.606803) can0 083#05
(1694453902.606919) can0 098#01
(1694453902.693299) can0 024#C05D
(1694453902.693416) can0 039#C05D
(1694453902.693549) can0 043#D0A9
(1694453902.693684) can0 062#8020
(1694453902.693801) can0 077#1A
(1694453902.703303) can0 08D#02
(1694453902.703407) can0 0A2#00
(1694453902.703524) can0 0B4#01
(1694453902.706254) can0 01A#405D
(1694453902.706386) can0 02F#80F4
(1694453902.706527) can0 058#0C20
(1694453902.706639) can0 06D#01
(1694453902.706756) can0 083#05
(1694453902.706873) can0 098#01
(1694453902.793244) can0 024#005B
(1694453902.793374) can0 039#005B
(1694453902.793515) can0 043#12AA
(1694453902.793639) can0 062#801B
(1694453902.793752) can0 077#1A
(1694453902.803194) can0 08D#02
(1694453902.803310) can0 0A2#00
(1694453902.803420) can0 0B4#01
(1694453902.806251) can0 01A#C05A
(1694453902.806370) can0 02F#C0F2
(1694453902.806507) can0 058#EA1A
(1694453902.806619) can0 06D#01
(1694453902.806736) can0 083#05
(1694453902.806852) can0 098#01
(1694453902.893187) can0 024#8058
(1694453902.893268) can0 039#8058
(1694453902.893424) can0 043#53AA
(1694453902.893557) can0 062#C016
(1694453902.893668) can0 077#1A
(1694453902.903130) can0 08D#02
(1694453902.903239) can0 0A2#00
(1694453902.903352) can0 0B4#01
(1694453902.906156) can0 01A#4058
(1694453902.906286) can0 02F#00F1
(1694453902.906418) can0 058#2F16
(1694453902.906536) can0 06D#01
(1694453902.906651) can0 083#05
(1694453902.906767) can0 098#01
(1694453902.952162) can0 25C#0A
(1694453902.952265) can0 271#00
(1694453902.952381) can0 286#00
(1694453902.952496) can0 29C#01
(1694453902.952612) can0 2B1#00
(1694453902.955097) can0 1BB#01
(1694453902.958100) can0 1B8#01
(1694453902.958216) can0 1A7#02
(1694453902.958338) can0 1B1#01
(1694453902.958446) can0 1C9#00
(1694453902.960124) can0 146#4054
(1694453902.960235) can0 15A#00
(1694453902.960366) can0 16F#C013
(1694453902.960486) can0 183#56
(1694453902.960598) can0 18D#00
(1694453902.960717) can0 198#00
(1694453902.960824) can0 19A#00
(1694453902.960940) can0 1D3#00
(1694453902.993128) can0 024#0056
(1694453902.993260) can0 039#0056
(1694453902.993393) can0 043#95AA
(1694453902.993526) can0 062#4012
(1694453902.993639) can0 077#1A
(1694453903.003097) can0 08D#02
(1694453903.003205) can0 0A2#00
(1694453903.003326) can0 0B4#01
(1694453903.006076) can0 01A#8055
(1694453903.006211) can0 02F#00EF
(1694453903.006340) can0 058#DF11
(1694453903.006455) can0 06D#01
(1694453903.006578) can0 083#05
(1694453903.006686) can0 098#01
(1694453903.093052) can0 024#8053
(1694453903.093172) can0 039#8053
(1694453903.093299) can0 043#D6AA
(1694453903.093433) can0 062#400E
(1694453903.093557) can0 077#1A
(1694453903.103026) can0 08D#02
(1694453903.103137) can0 0A2#00
(1694453903.103258) can0 0B4#01
(1694453903.106016) can0 01A#0053
(1694453903.106153) can0 02F#00ED
(1694453903.106296) can0 058#FD0D
(1694453903.106394) can0 06D#01
(1694453903.106512) can0 083#05
(1694453903.106634) can0 098#01
(1694453903.194025) can0 024#C050
(1694453903.194118) can0 039#C050
(1694453903.194264) can0 043#18AB
(1694453903.194393) can0 062#C00A
(1694453903.194515) can0 077#1A
(1694453903.202978) can0 08D#02
(1694453903.203130) can0 0A2#00
(1694453903.203243) can0 0B4#01
(1694453903.205954) can0 01A#8050
(1694453903.206088) can0 02F#C0EA
(1694453903.206220) can0 058#8F0A
(1694453903.206333) can0 06D#01
(1694453903.206450) can0 083#05
(1694453903.206565) can0 098#01
(1694453903.293946) can0 024#404E
(1694453903.294078) can0 039#404E
(1694453903.294201) can0 043#59AB
(1694453903.294337) can0 062#C007
(1694453903.294451) can0 077#1A
(1694453903.302918) can0 08D#02
(1694453903.303082) can0 0A2#00
(1694453903.303203) can0 0B4#01
(1694453903.305898) can0 01A#004E
(1694453903.306033) can0 02F#80E8
(1694453903.306165) can0 058#9807
(1694453903.306285) can0 06D#01
(1694453903.306398) can0 083#05
(1694453903.306522) can0 098#01
(1694453903.393900) can0 024#C04B
(1694453903.394020) can0 039#C04B
(1694453903.394153) can0 043#9BAB
(1694453903.394300) can0 062#4005
(1694453903.394402) can0 077#1A
(1694453903.402875) can0 08D#02
(1694453903.402985) can0 0A2#00
(1694453903.403101) can0 0B4#01
(1694453903.405854) can0 01A#804B
(1694453903.405998) can0 02F#40E6
(1694453903.406116) can0 058#1B05
(1694453903.406233) can0 06D#01
(1694453903.406349) can0 083#05
(1694453903.406464) can0 098#01
(1694453903.439882) can0 266#0A
(1694453903.439998) can0 27B#00
(1694453903.440116) can0 290#01
(1694453903.440258) can0 2A6#0000
(1694453903.440383) can0 2BB#0400
(1694453903.440499) can0 477#00
(1694453903.454857) can0 1BB#01
(1694453903.457801) can0 1B8#01
(1694453903.457907) can0 1A7#02
(1694453903.458026) can0 1B1#01
(1694453903.458153) can0 1C9#00
(1694453903.460844) can0 146#C05A
(1694453903.460962) can0 15A#00
(1694453903.461094) can0 16F#C003
(1694453903.461206) can0 183#49
(1694453903.461324) can0 18D#00
(1694453903.461440) can0 198#00
(1694453903.461557) can0 19A#00
(1694453903.461666) can0 1D3#00
(1694453903.493826) can0 024#4049
(1694453903.493957) can0 039#4049
(1694453903.494091) can0 043#DCAB
(1694453903.494231) can0 062#4003
(1694453903.494331) can0 077#1A
(1694453903.502798) can0 08D#02
(1694453903.502902) can0 0A2#00
(1694453903.503021) can0 0B4#01
(1694453903.506798) can0 01A#C048
(1694453903.506918) can0 02F#C0E3
(1694453903.507050) can0 058#1903
(1694453903.507167) can0 06D#01
(1694453903.507283) can0 083#05
(1694453903.507399) can0 098#01
(1694453903.593772) can0 024#8046
(1694453903.593894) can0 039#8046
(1694453903.594026) can0 043#1EAC
(1694453903.594169) can0 062#C001
(1694453903.594272) can0 077#1A
(1694453903.603727) can0 08D#02
(1694453903.603831) can0 0A2#00
(1694453903.603947) can0 0B4#01
(1694453903.606773) can0 01A#4046
(1694453903.606903) can0 02F#40E1
(1694453903.607035) can0 058#9601
(1694453903.607150) can0 06D#01
(1694453903.607266) can0 083#05
(1694453903.607383) can0 098#01
(1694453903.693764) can0 024#0044
(1694453903.693857) can0 039#0044
(1694453903.693996) can0 043#5FAC
(1694453903.694118) can0 062#8000
(1694453903.694233) can0 077#1A
(1694453903.703670) can0 08D#02
(1694453903.703780) can0 0A2#00
(1694453903.703895) can0 0B4#01
(1694453903.706683) can0 01A#C043
(1694453903.706816) can0 02F#80DE
(1694453903.706948) can0 058#9300
(1694453903.707064) can0 06D#01
(1694453903.707176) can0 083#05
(1694453903.707295) can0 098#01
(1694453903.793681) can0 024#8041
(1694453903.793789) can0 039#8041
(1694453903.793927) can0 043#A1AC
(1694453903.794060) can0 062#0000
(1694453903.794170) can0 077#1A
(1694453903.803614) can0 08D#02
(1694453903.803727) can0 0A2#00
(1694453903.803835) can0 0B4#01
(1694453903.806606) can0 01A#4041
(1694453903.806738) can0 02F#C0DB
(1694453903.806871) can0 058#1000
(1694453903.806988) can0 06D#01
(1694453903.807109) can0 083#05
(1694453903.807221) can0 098#01
(1694453903.893630) can0 024#003F
(1694453903.893727) can0 039#003F
(1694453903.893875) can0 043#E3AC
(1694453903.894000) can0 062#0000
(1694453903.894120) can0 077#02
(1694453903.903553) can0 08D#02
(1694453903.903658) can0 0A2#00
(1694453903.903785) can0 0B4#01
(1694453903.906786) can0 01A#803E
(1694453903.906918) can0 02F#00D9
(1694453903.907055) can0 058#0F00
(1694453903.907179) can0 06D#01
(1694453903.907291) can0 083#01
(1694453903.907410) can0 098#01
(1694453903.952633) can0 25C#02
(1694453903.952749) can0 271#00
(1694453903.952861) can0 286#00
(1694453903.952976) can0 29C#01
(1694453903.953094) can0 2B1#00
(1694453903.955561) can0 1BB#01
(1694453903.958566) can0 1B8#01
(1694453903.958677) can0 1A7#00
(1694453903.958795) can0 1B1#01
(1694453903.958910) can0 1C9#00
(1694453903.960543) can0 146#4061
(1694453903.960668) can0 15A#00
(1694453903.960793) can0 16F#4000
(1694453903.960913) can0 183#3D
(1694453903.961033) can0 18D#00
(1694453903.961138) can0 198#00
(1694453903.961255) can0 19A#00
(1694453903.961375) can0 1D3#00
(1694453903.993581) can0 024#403C
(1694453903.993655) can0 039#403C
(1694453903.993801) can0 043#24AD
(1694453903.993942) can0 062#4000
(1694453903.994052) can0 077#02
(1694453904.003509) can0 08D#02
(1694453904.003618) can0 0A2#00
(1694453904.003740) can0 0B4#01
(1694453904.006554) can0 01A#003C
(1694453904.006692) can0 02F#00D6
(1694453904.006826) can0 058#8F00
(1694453904.006935) can0 06D#01
(1694453904.007053) can0 083#01
(1694453904.007169) can0 098#01
(1694453904.093544) can0 024#C039
(1694453904.093624) can0 039#C039
(1694453904.093767) can0 043#66AD
(1694453904.093907) can0 062#4001
(1694453904.094015) can0 077#02
(1694453904.103455) can0 08D#02
(1694453904.103561) can0 0A2#00
(1694453904.103682) can0 0B4#01
(1694453904.106435) can0 01A#8039
(1694453904.106567) can0 02F#00D3
(1694453904.106703) can0 058#9001
(1694453904.106824) can0 06D#01
(1694453904.106943) can0 083#01
(1694453904.107058) can0 098#01
(1694453904.193460) can0 024#4037
(1694453904.193577) can0 039#4037
(1694453904.193712) can0 043#A7AD
(1694453904.193839) can0 062#C002
(1694453904.193962) can0 077#02
(1694453904.203395) can0 08D#02
(1694453904.203512) can0 0A2#00
(1694453904.203624) can0 0B4#01
(1694453904.206387) can0 01A#0037
(1694453904.206522) can0 02F#C0CF
(1694453904.206660) can0 058#1003
(1694453904.206781) can0 06D#01
(1694453904.206905) can0 083#01
(1694453904.207012) can0 098#01
(1694453904.293351) can0 024#C034
(1694453904.293492) can0 039#C034
(1694453904.293617) can0 043#E9AD
(1694453904.293747) can0 062#C004
(1694453904.293871) can0 077#02
(1694453904.303310) can0 08D#02
(1694453904.303421) can0 0A2#00
(1694453904.303541) can0 0B4#01
(1694453904.306336) can0 01A#4034
(1694453904.306475) can0 02F#C0CC
(1694453904.306609) can0 058#0F05
(1694453904.306730) can0 06D#01
(1694453904.306842) can0 083#01
(1694453904.306962) can0 098#01
(1694453904.393361) can0 024#4032
(1694453904.393448) can0 039#4032
(1694453904.393583) can0 043#2AAE
(1694453904.393716) can0 062#0007
(1694453904.393849) can0 077#02
(1694453904.403320) can0 08D#02
(1694453904.403425) can0 0A2#00
(1694453904.403539) can0 0B4#01
(1694453904.406270) can0 01A#C031
(1694453904.406414) can0 02F#80C9
(1694453904.406536) can0 058#8A07
(1694453904.406654) can0 06D#01
(1694453904.406775) can0 083#01
(1694453904.406887) can0 098#01
(1694453904.440339) can0 266#02
(1694453904.440455) can0 27B#00
(1694453904.440566) can0 290#01
(1694453904.440700) can0 2A6#0000
(1694453904.440835) can0 2BB#0800
(1694453904.440946) can0 477#00
(1694453904.455241) can0 1BB#01
(1694453904.458233) can0 1B8#01
(1694453904.458358) can0 1A7#00
(1694453904.458464) can0 1B1#01
(1694453904.458586) can0 1C9#00
(1694453904.460257) can0 146#8067
(1694453904.460368) can0 15A#00
(1694453904.460505) can0 16F#0009
(1694453904.460620) can0 183#30
(1694453904.460741) can0 18D#00
(1694453904.460848) can0 198#00
(1694453904.460965) can0 19A#00
(1694453904.461077) can0 1D3#00
(1694453904.493277) can0 024#802F
(1694453904.493407) can0 039#802F
(1694453904.493539) can0 043#6CAE
(1694453904.493675) can0 062#000A
(1694453904.493797) can0 077#02
(1694453904.503245) can0 08D#02
(1694453904.503354) can0 0A2#00
(1694453904.503474) can0 0B4#01
(1694453904.506250) can0 01A#402F
(1694453904.506382) can0 02F#00C6
(1694453904.506514) can0 058#7F0A
(1694453904.506634) can0 06D#01
(1694453904.506758) can0 083#01
(1694453904.506865) can0 098#01
(1694453904.593220) can0 024#002D
(1694453904.593339) can0 039#002D
(1694453904.593463) can0 043#ADAE
(1694453904.593603) can0 062#400D
(1694453904.593721) can0 077#02
(1694453904.603170) can0 08D#02
(1694453904.603278) can0 0A2#00
(1694453904.603393) can0 0B4#01
(1694453904.606156) can0 01A#C02C
(1694453904.606283) can0 02F#C0C2
(1694453904.606417) can0 058#EB0D
(1694453904.606531) can0 06D#01
(1694453904.606648) can0 083#01
(1694453904.606764) can0 098#01
(1694453904.693172) can0 024#802A
(1694453904.693296) can0 039#802A
(1694453904.693427) can0 043#EFAE
(1694453904.693560) can0 062#0011
(1694453904.693682) can0 077#02
(1694453904.703109) can0 08D#02
(1694453904.703219) can0 0A2#00
(1694453904.703339) can0 0B4#01
(1694453904.706101) can0 01A#002A
(1694453904.706237) can0 02F#40BF
(1694453904.706370) can0 058#CA11
(1694453904.706480) can0 06D#01
(1694453904.706605) can0 083#01
(1694453904.706714) can0 098#01
(1694453904.793092) can0 024#0028
(1694453904.793218) can0 039#0028
(1694453904.793359) can0 043#30AF
(1694453904.793488) can0 062#4015
(1694453904.793603) can0 077#02
(1694453904.803076) can0 08D#02
(1694453904.803192) can0 0A2#00
(1694453904.803302) can0 0B4#01
(1694453904.806061) can0 01A#8027
(1694453904.806203) can0 02F#C0BB
(1694453904.806325) can0 058#1816
(1694453904.806441) can0 06D#01
(1694453904.806559) can0 083#01
(1694453904.806675) can0 098#01
(1694453904.893027) can0 024#4025
(1694453904.893150) can0 039#4025
(1694453904.893280) can0 043#72AF
(1694453904.893420) can0 062#001A
(1694453904.893533) can0 077#02
(1694453904.902987) can0 08D#02
(1694453904.903096) can0 0A2#00
(1694453904.903212) can0 0B4#01
(1694453904.906033) can0 01A#0025
(1694453904.906176) can0 02F#40B8
(1694453904.906296) can0 058#D11A
(1694453904.906414) can0 06D#01
(1694453904.906532) can0 083#01
(1694453904.906648) can0 098#01
(1694453904.952001) can0 25C#02
(1694453904.952108) can0 271#00
(1694453904.952224) can0 286#00
(1694453904.952338) can0 29C#01
(1694453904.952454) can0 2B1#00
(1694453904.954942) can0 1BB#01
(1694453904.957943) can0 1B8#01
(1694453904.958057) can0 1A7#00
(1694453904.958175) can0 1B1#01
(1694453904.958291) can0 1C9#00
(1694453904.960978) can0 146#006E
(1694453904.961093) can0 15A#00
(1694453904.961222) can0 16F#801D
(1694453904.961334) can0 183#23
(1694453904.961451) can0 18D#00
(1694453904.961567) can0 198#00
(1694453904.961683) can0 19A#00
(1694453904.961791) can0 1D3#00
(1694453904.993972) can0 024#C022
(1694453904.994102) can0 039#C022
(1694453904.994236) can0 043#B3AF
(1694453904.994377) can0 062#001F
(1694453904.994492) can0 077#02
(1694453905.002936) can0 08D#02
(1694453905.003012) can0 0A2#00
(1694453905.003151) can0 0B4#01
(1694453905.005951) can0 01A#8022
(1694453905.006094) can0 02F#80B4
(1694453905.006219) can0 058#F11F
(1694453905.006334) can0 06D#01
(1694453905.006452) can0 083#01
(1694453905.006569) can0 098#01
(1694453905.093923) can0 024#4020
(1694453905.094041) can0 039#4020
(1694453905.094174) can0 043#F5AF
(1694453905.094301) can0 062#8024
(1694453905.094419) can0 077#02
(1694453905.102873) can0 08D#02
(1694453905.102977) can0 0A2#00
(1694453905.103096) can0 0B4#01
(1694453905.105887) can0 01A#0020
(1694453905.106018) can0 02F#C0B0
(1694453905.106157) can0 058#7125
(1694453905.106268) can0 06D#01
(1694453905.106386) can0 083#01
(1694453905.106502) can0 098#01
(1694453905.193839) can0 024#C01D
(1694453905.193971) can0 039#C01D
(1694453905.194100) can0 043#36B0
(1694453905.194233) can0 062#402A
(1694453905.194350) can0 077#02
(1694453905.202830) can0 08D#02
(1694453905.202936) can0 0A2#00
(1694453905.203053) can0 0B4#01
(1694453905.206834) can0 01A#401D
(1694453905.206976) can0 02F#00AD
(1694453905.207097) can0 058#4D2B
(1694453905.207213) can0 06D#01
(1694453905.207331) can0 083#01
(1694453905.207447) can0 098#01
(1694453905.293818) can0 024#001B
(1694453905.293951) can0 039#001B
(1694453905.294071) can0 043#78B0
(1694453905.294206) can0 062#8030
(1694453905.294323) can0 077#02
(1694453905.302775) can0 08D#02
(1694453905.302881) can0 0A2#00
(1694453905.302999) can0 0B4#01
(1694453905.306771) can0 01A#C01A
(1694453905.306899) can0 02F#40A9
(1694453905.307031) can0 058#7F31
(1694453905.307146) can0 06D#01
(1694453905.307265) can0 083#01
(1694453905.307380) can0 098#01
(1694453905.393744) can0 024#8018
(1694453905.393878) can0 039#8018
(1694453905.394008) can0 043#BAB0
(1694453905.394145) can0 062#0037
(1694453905.394265) can0 077#02
(1694453905.403698) can0 08D#02
(1694453905.403813) can0 0A2#00
(1694453905.403922) can0 0B4#01
(1694453905.406707) can0 01A#4018
(1694453905.406848) can0 02F#80A5
(1694453905.406976) can0 058#0038
(1694453905.407089) can0 06D#01
(1694453905.407208) can0 083#01
(1694453905.407324) can0 098#01
(1694453905.440756) can0 266#02
(1694453905.440871) can0 27B#00
(1694453905.440988) can0 290#01
(1694453905.441128) can0 2A6#0000
(1694453905.441256) can0 2BB#3900
(1694453905.441371) can0 477#00
(1694453905.455663) can0 1BB#01
(1694453905.458661) can0 1B8#01
(1694453905.458775) can0 1A7#00
(1694453905.458913) can0 1B1#01
(1694453905.459007) can0 1C9#00
(1694453905.460680) can0 146#4074
(1694453905.460794) can0 15A#00
(1694453905.460935) can0 16F#803B
(1694453905.461040) can0 183#16
(1694453905.461163) can0 18D#00
(1694453905.461270) can0 198#00
(1694453905.461386) can0 19A#00
(1694453905.461500) can0 1D3#00
(1694453905.493690) can0 024#0016
(1694453905.493824) can0 039#0016
(1694453905.493957) can0 043#FBB0
(1694453905.494085) can0 062#C03D
(1694453905.494203) can0 077#02
(1694453905.503654) can0 08D#02
(1694453905.503746) can0 0A2#00
(1694453905.503872) can0 0B4#01
(1694453905.506638) can0 01A#C015
(1694453905.506767) can0 02F#80A1
(1694453905.506907) can0 058#CA3E
(1694453905.507020) can0 06D#01
(1694453905.507138) can0 083#01
(1694453905.507255) can0 098#01
(1694453905.593699) can0 024#8013
(1694453905.593829) can0 039#8013
(1694453905.593971) can0 043#3DB1
(1694453905.594095) can0 062#C044
(1694453905.594210) can0 077#02
(1694453905.603582) can0 08D#02
(1694453905.603691) can0 0A2#00
(1694453905.603805) can0 0B4#01
(1694453905.606595) can0 01A#0013
(1694453905.606722) can0 02F#C09D
(1694453905.606862) can0 058#D645
(1694453905.606975) can0 06D#01
(1694453905.607092) can0 083#01
(1694453905.607209) can0 098#01
(1694453905.693558) can0 024#C010
(1694453905.693686) can0 039#C010
(1694453905.693818) can0 043#7EB1
(1694453905.693963) can0 062#004C
(1694453905.694079) can0 077#02
(1694453905.703527) can0 08D#02
(1694453905.703634) can0 0A2#00
(1694453905.703751) can0 0B4#01
(1694453905.706548) can0 01A#8010
(1694453905.706677) can0 02F#C099
(1694453905.706814) can0 058#1D4D
(1694453905.706928) can0 06D#01
(1694453905.707046) can0 083#01
(1694453905.707162) can0 098#01
(1694453905.793520) can0 024#400E
(1694453905.793647) can0 039#400E
(1694453905.793779) can0 043#C0B1
(1694453905.793916) can0 062#8053
(1694453905.794029) can0 077#02
(1694453905.803499) can0 08D#02
(1694453905.803603) can0 0A2#00
(1694453905.803718) can0 0B4#01
(1694453905.806465) can0 01A#000E
(1694453905.806608) can0 02F#C095
(1694453905.806731) can0 058#9754
(1694453905.806846) can0 06D#01
(1694453905.806964) can0 083#01
(1694453905.807081) can0 098#01
(1694453905.893434) can0 024#C00B
(1694453905.893563) can0 039#C00B
(1694453905.893700) can0 043#01B2
(1694453905.893838) can0 062#005B
(1694453905.893951) can0 077#02
(1694453905.903447) can0 08D#02
(1694453905.903532) can0 0A2#00
(1694453905.903657) can0 0B4#01
(1694453905.906425) can0 01A#800B
(1694453905.906571) can0 02F#0092
(1694453905.906692) can0 058#3D5C
(1694453905.906808) can0 06D#01
(1694453905.906926) can0 083#01
(1694453905.907042) can0 098#01
(1694453905.952427) can0 25C#02
(1694453905.952562) can0 271#00
(1694453905.952679) can0 286#00
(1694453905.952790) can0 29C#01
(1694453905.952903) can0 2B1#00
(1694453905.955387) can0 1BB#01
(1694453905.958499) can0 1B8#01
(1694453905.958620) can0 1A7#00
(1694453905.958736) can0 1B1#01
(1694453905.958879) can0 1C9#00
(1694453905.960426) can0 146#C07A
(1694453905.960541) can0 15A#00
(1694453905.960683) can0 16F#4060
(1694453905.960786) can0 183#0A
(1694453905.960903) can0 18D#00
(1694453905.961020) can0 198#00
(1694453905.961133) can0 19A#00
(1694453905.961247) can0 1D3#00
(1694453905.993388) can0 024#4009
(1694453905.993520) can0 039#4009
(1694453905.993659) can0 043#43B2
(1694453905.993781) can0 062#C062
(1694453905.993899) can0 077#02
(1694453906.003361) can0 08D#02
(1694453906.003478) can0 0A2#00
(1694453906.003588) can0 0B4#01
(1694453906.006362) can0 01A#C008
(1694453906.006493) can0 02F#008E
(1694453906.006631) can0 058#0764
(1694453906.006744) can0 06D#01
(1694453906.006862) can0 083#01
(1694453906.006973) can0 098#01
(1694453906.093348) can0 024#C006
(1694453906.093473) can0 039#C006
(1694453906.093605) can0 043#84B2
(1694453906.093747) can0 062#C06A
(1694453906.093850) can0 077#02
(1694453906.103326) can0 08D#02
(1694453906.103443) can0 0A2#00
(1694453906.103549) can0 0B4#01
(1694453906.106305) can0 01A#4006
(1694453906.106436) can0 02F#008A
(1694453906.106575) can0 058#ED6B
(1694453906.106688) can0 06D#01
(1694453906.106805) can0 083#01
(1694453906.106921) can0 098#01
(1694453906.193283) can0 024#0004
(1694453906.193412) can0 039#0004
(1694453906.193545) can0 043#C6B2
(1694453906.193685) can0 062#C072
(1694453906.193799) can0 077#02
(1694453906.203285) can0 08D#02
(1694453906.203391) can0 0A2#00
(1694453906.203519) can0 0B4#01
(1694453906.206227) can0 01A#C003
(1694453906.206363) can0 02F#0086
(1694453906.206492) can0 058#E873
(1694453906.206606) can0 06D#01
(1694453906.206725) can0 083#01
(1694453906.206842) can0 098#01
(1694453906.293225) can0 024#8001
(1694453906.293356) can0 039#8001
(1694453906.293500) can0 043#07B3
(1694453906.293619) can0 062#C07A
(1694453906.293737) can0 077#02
(1694453906.303190) can0 08D#02
(1694453906.303293) can0 0A2#00
(1694453906.303409) can0 0B4#01
(1694453906.306192) can0 01A#4001
(1694453906.306311) can0 02F#C081
(1694453906.306444) can0 058#EF7B
(1694453906.306559) can0 06D#01
(1694453906.306680) can0 083#01
(1694453906.306793) can0 098#01
(1694453906.393172) can0 024#C000
(1694453906.393301) can0 039#C000
(1694453906.393441) can0 043#49B3
(1694453906.393563) can0 062#C082
(1694453906.393676) can0 077#1C
(1694453906.403121) can0 08D#01
(1694453906.403227) can0 0A2#00
(1694453906.403344) can0 0B4#00
(1694453906.406121) can0 01A#4001
(1694453906.406252) can0 02F#C07D
(1694453906.406401) can0 058#FA83
(1694453906.406513) can0 06D#00
(1694453906.406631) can0 083#06
(1694453906.406739) can0 098#00
(1694453906.440164) can0 266#08
(1694453906.440283) can0 27B#01
(1694453906.440395) can0 290#00
(1694453906.440545) can0 2A6#0100
(1694453906.440667) can0 2BB#8400
(1694453906.440783) can0 477#00
(1694453906.455098) can0 1BB#02
(1694453906.458157) can0 1B8#00
(1694453906.458264) can0 1A7#02
(1694453906.458382) can0 1B1#00
(1694453906.458494) can0 1C9#00
(1694453906.460095) can0 146#4081
(1694453906.460198) can0 15A#01
(1694453906.460334) can0 16F#0088
(1694453906.460449) can0 183#02
(1694453906.460565) can0 18D#00
(1694453906.460679) can0 198#00
(1694453906.460793) can0 19A#01
(1694453906.460907) can0 1D3#01
(1694453906.493136) can0 024#4003
(1694453906.493267) can0 039#4003
(1694453906.493405) can0 043#8AB3
(1694453906.493532) can0 062#C08A
(1694453906.493644) can0 077#1C
(1694453906.503086) can0 08D#01
(1694453906.503191) can0 0A2#00
(1694453906.503307) can0 0B4#00
(1694453906.506066) can0 01A#C003
(1694453906.506207) can0 02F#C079
(1694453906.506330) can0 058#018C
(1694453906.506448) can0 06D#00
(1694453906.506565) can0 083#06
(1694453906.506685) can0 098#00
(1694453906.593051) can0 024#0006
(1694453906.593150) can0 039#0006
(1694453906.593295) can0 043#CCB3
(1694453906.593423) can0 062#C092
(1694453906.593539) can0 077#1C
(1694453906.603037) can0 08D#01
(1694453906.603141) can0 0A2#00
(1694453906.603260) can0 0B4#00
(1694453906.606028) can0 01A#4006
(1694453906.606171) can0 02F#C075
(1694453906.606295) can0 058#FC93
(1694453906.606407) can0 06D#00
(1694453906.606526) can0 083#06
(1694453906.606643) can0 098#00
(1694453906.694012) can0 024#8008
(1694453906.694111) can0 039#8008
(1694453906.694253) can0 043#0DB4
(1694453906.694382) can0 062#C09A
(1694453906.694498) can0 077#1C
(1694453906.702970) can0 08D#01
(1694453906.703078) can0 0A2#00
(1694453906.703192) can0 0B4#00
(1694453906.705950) can0 01A#C008
(1694453906.706094) can0 02F#C071
(1694453906.706210) can0 058#E39B
(1694453906.706328) can0 06D#00
(1694453906.706449) can0 083#06
(1694453906.706563) can0 098#00
(1694453906.750932) can0 420#00
(1694453906.751038) can0 457#00
(1694453906.751146) can0 461#01
(1694453906.751263) can0 46C#01
(1694453906.793924) can0 024#000B
(1694453906.794058) can0 039#000B
(1694453906.794192) can0 043#4FB4
(1694453906.794325) can0 062#80A2
(1694453906.794436) can0 077#1C
(1694453906.802921) can0 08D#01
(1694453906.803029) can0 0A2#00
(1694453906.803151) can0 0B4#00
(1694453906.805979) can0 01A#400B
(1694453906.806112) can0 02F#C06D
(1694453906.806244) can0 058#AEA3
(1694453906.806359) can0 06D#00
(1694453906.806476) can0 083#06
(1694453906.806593) can0 098#00
(1694453906.893889) can0 024#800D
(1694453906.894020) can0 039#800D
(1694453906.894153) can0 043#91B4
(1694453906.894285) can0 062#00AA
(1694453906.894396) can0 077#1C
(1694453906.902834) can0 08D#01
(1694453906.902944) can0 0A2#00
(1694453906.903063) can0 0B4#00
(1694453906.905828) can0 01A#000E
(1694453906.905964) can0 02F#C069
(1694453906.906095) can0 058#54AB
(1694453906.906216) can0 06D#00
(1694453906.906326) can0 083#06
(1694453906.906444) can0 098#00
(1694453906.952915) can0 25C#0C
(1694453906.953007) can0 271#00
(1694453906.953136) can0 286#00
(1694453906.953252) can0 29C#00
(1694453906.953369) can0 2B1#01
(1694453906.954799) can0 1BB#02
(1694453906.958891) can0 1B8#00
(1694453906.958956) can0 1A7#02
(1694453906.959088) can0 1B1#00
(1694453906.959200) can0 1C9#00
(1694453906.960804) can0 146#8087
(1694453906.960920) can0 15A#01
(1694453906.961061) can0 16F#40AF
(1694453906.961173) can0 183#0F
(1694453906.961290) can0 18D#00
(1694453906.961406) can0 198#00
(1694453906.961514) can0 19A#01
(1694453906.961627) can0 1D3#01
(1694453906.993822) can0 024#4010
(1694453906.993970) can0 039#4010
(1694453906.994091) can0 043#D2B4
(1694453906.994226) can0 062#80B1
(1694453906.994343) can0 077#1C
(1694453907.002785) can0 08D#01
(1694453907.002890) can0 0A2#00
(1694453907.003005) can0 0B4#00
(1694453907.006830) can0 01A#8010
(1694453907.006952) can0 02F#0066
(1694453907.007083) can0 058#D0B2
(1694453907.007200) can0 06D#00
(1694453907.007316) can0 083#06
(1694453907.007430) can0 098#00
(1694453907.010804) can0 3D4#69
(1694453907.010919) can0 3DE#00
(1694453907.011037) can0 482#00
(1694453907.093761) can0 024#C012
(1694453907.093888) can0 039#C012
(1694453907.094033) can0 043#14B5
(1694453907.094151) can0 062#00B9
(1694453907.094265) can0 077#1C
(1694453907.103700) can0 08D#01
(1694453907.103804) can0 0A2#00
(1694453907.103920) can0 0B4#00
(1694453907.106721) can0 01A#0013
(1694453907.106874) can0 02F#0062
(1694453907.106984) can0 058#17BA
(1694453907.107104) can0 06D#00
(1694453907.107221) can0 083#06
(1694453907.107334) can0 098#00
(1694453907.193697) can0 024#4015
(1694453907.193824) can0 039#4015
(1694453907.193955) can0 043#55B5
(1694453907.194093) can0 062#00C0
(1694453907.194207) can0 077#1C
(1694453907.203667) can0 08D#01
(1694453907.203773) can0 0A2#00
(1694453907.203887) can0 0B4#00
(1694453907.206713) can0 01A#8015
(1694453907.206866) can0 02F#005E
(1694453907.206977) can0 058#24C1
(1694453907.207103) can0 06D#00
(1694453907.207220) can0 083#06
(1694453907.207336) can0 098#00
(1694453907.293638) can0 024#C017
(1694453907.293760) can0 039#C017
(1694453907.293892) can0 043#97B5
(1694453907.294036) can0 062#C0C6
(1694453907.294137) can0 077#1C
(1694453907.303604) can0 08D#01
(1694453907.303708) can0 0A2#00
(1694453907.303828) can0 0B4#00
(1694453907.306603) can0 01A#4018
(1694453907.306736) can0 02F#405A
(1694453907.306885) can0 058#F0C7
(1694453907.306973) can0 06D#00
(1694453907.307097) can0 083#06
(1694453907.307213) can0 098#00
(1694453907.393583) can0 024#801A
(1694453907.393713) can0 039#801A
(1694453907.393844) can0 043#D8B5
(1694453907.393970) can0 062#40CD
(1694453907.394083) can0 077#1C
(1694453907.403582) can0 08D#01
(1694453907.403685) can0 0A2#00
(1694453907.403802) can0 0B4#00
(1694453907.406517) can0 01A#C01A
(1694453907.406648) can0 02F#8056
(1694453907.406787) can0 058#72CE
(1694453907.406899) can0 06D#00
(1694453907.407020) can0 083#06
(1694453907.407130) can0 098#00
(1694453907.440563) can0 266#08
(1694453907.440679) can0 27B#01
(1694453907.440796) can0 290#00
(1694453907.440937) can0 2A6#0200
(1694453907.441058) can0 2BB#CD00
(1694453907.441174) can0 477#00
(1694453907.455537) can0 1BB#02
(1694453907.459512) can0 1B8#00
(1694453907.459617) can0 1A7#02
(1694453907.459732) can0 1B1#00
(1694453907.459845) can0 1C9#00
(1694453907.460577) can0 146#008E
(1694453907.460692) can0 15A#01
(1694453907.460833) can0 16F#80D1
(1694453907.460936) can0 183#1C
(1694453907.461058) can0 18D#00
(1694453907.461167) can0 198#00
(1694453907.461283) can0 19A#01
(1694453907.461396) can0 1D3#01
(1694453907.493513) can0 024#001D
(1694453907.493648) can0 039#001D
(1694453907.493789) can0 043#1AB6
(1694453907.493910) can0 062#80D3
(1694453907.494024) can0 077#1C
(1694453907.503490) can0 08D#01
(1694453907.503633) can0 0A2#00
(1694453907.503746) can0 0B4#00
(1694453907.506490) can0 01A#401D
(1694453907.506620) can0 02F#C052
(1694453907.506759) can0 058#A6D4
(1694453907.506872) can0 06D#00
(1694453907.506985) can0 083#06
(1694453907.507098) can0 098#00
(1694453907.593480) can0 024#801F
(1694453907.593604) can0 039#801F
(1694453907.593727) can0 043#5BB6
(1694453907.593860) can0 062#80D9
(1694453907.593980) can0 077#1C
(1694453907.603422) can0 08D#01
(1694453907.603538) can0 0A2#00
(1694453907.603655) can0 0B4#00
(1694453907.606420) can0 01A#C01F
(1694453907.606561) can0 02F#004F
(1694453907.606699) can0 058#83DA
(1694453907.606816) can0 06D#00
(1694453907.606934) can0 083#06
(1694453907.607047) can0 098#00
(1694453907.693450) can0 024#0022
(1694453907.693571) can0 039#0022
(1694453907.693714) can0 043#9DB6
(1694453907.693837) can0 062#00DF
(1694453907.693950) can0 077#1C
(1694453907.703567) can0 08D#01
(1694453907.703676) can0 0A2#00
(1694453907.703797) can0 0B4#00
(1694453907.706365) can0 01A#8022
(1694453907.706502) can0 02F#404B
(1694453907.706636) can0 058#06E0
(1694453907.706758) can0 06D#00
(1694453907.706866) can0 083#06
(1694453907.706982) can0 098#00
(1694453907.793348) can0 024#8024
(1694453907.793474) can0 039#8024
(1694453907.793618) can0 043#DEB6
(1694453907.793738) can0 062#40E4
(1694453907.793852) can0 077#1C
(1694453907.803341) can0 08D#01
(1694453907.803447) can0 0A2#00
(1694453907.803561) can0 0B4#00
(1694453907.806325) can0 01A#0025
(1694453907.806456) can0 02F#8047
(1694453907.806595) can0 058#28E5
(1694453907.806709) can0 06D#00
(1694453907.806826) can0 083#06
(1694453907.806933) can0 098#00
(1694453907.893306) can0 024#4027
(1694453907.893434) can0 039#4027
(1694453907.893563) can0 043#20B7
(1694453907.893706) can0 062#00E9
(1694453907.893809) can0 077#1C
(1694453907.903252) can0 08D#01
(1694453907.903368) can0 0A2#00
(1694453907.903476) can0 0B4#00
(1694453907.906260) can0 01A#8027
(1694453907.906403) can0 02F#0044
(1694453907.906524) can0 058#E3E9
(1694453907.906640) can0 06D#00
(1694453907.906756) can0 083#06
(1694453907.906872) can0 098#00
(1694453907.953321) can0 25C#0C
(1694453907.953427) can0 271#00
(1694453907.953555) can0 286#00
(1694453907.953665) can0 29C#00
(1694453907.953778) can0 2B1#01
(1694453907.955269) can0 1BB#02
(1694453907.959229) can0 1B8#00
(1694453907.959365) can0 1A7#02
(1694453907.959441) can0 1B1#00
(1694453907.959571) can0 1C9#00
(1694453907.960295) can0 146#4094
(1694453907.960396) can0 15A#01
(1694453907.960540) can0 16F#00EC
(1694453907.960660) can0 183#28
(1694453907.960765) can0 18D#00
(1694453907.960897) can0 198#00
(1694453907.961025) can0 19A#01
(1694453907.961100) can0 1D3#01
(1694453907.993250) can0 024#C029
(1694453907.993374) can0 039#C029
(1694453907.993500) can0 043#61B7
(1694453907.993644) can0 062#40ED
(1694453907.993745) can0 077#1C
(1694453908.003210) can0 08D#01
(1694453908.003326) can0 0A2#00
(1694453908.003433) can0 0B4#00
(1694453908.006210) can0 01A#002A
(1694453908.006353) can0 02F#8040
(1694453908.006473) can0 058#33EE
(1694453908.006591) can0 06D#00
(1694453908.006707) can0 083#06
(1694453908.006820) can0 098#00
(1694453908.093213) can0 024#402C
(1694453908.093330) can0 039#402C
(1694453908.093464) can0 043#A3B7
(1694453908.093610) can0 062#40F1
(1694453908.093711) can0 077#1C
(1694453908.103145) can0 08D#01
(1694453908.103262) can0 0A2#00
(1694453908.103369) can0 0B4#00
(1694453908.106141) can0 01A#C02C
(1694453908.106284) can0 02F#003D
(1694453908.106404) can0 058#14F2
(1694453908.106522) can0 06D#00
(1694453908.106638) can0 083#06
(1694453908.106753) can0 098#00
(1694453908.193168) can0 024#C02E
(1694453908.193293) can0 039#C02E
(1694453908.193423) can0 043#E5B7
(1694453908.193564) can0 062#C0F4
(1694453908.193670) can0 077#1C
(1694453908.203085) can0 08D#01
(1694453908.203196) can0 0A2#00
(1694453908.203314) can0 0B4#00
(1694453908.206077) can0 01A#402F
(1694453908.206220) can0 02F#8039
(1694453908.206342) can0 058#82F5
(1694453908.206462) can0 06D#00
(1694453908.206577) can0 083#06
(1694453908.206691) can0 098#00
(1694453908.293104) can0 024#8031
(1694453908.293193) can0 039#8031
(1694453908.293327) can0 043#26B8
(1694453908.293456) can0 062#C0F7
(1694453908.293572) can0 077#1C
(1694453908.303051) can0 08D#01
(1694453908.303126) can0 0A2#00
(1694453908.303249) can0 0B4#00
(1694453908.306032) can0 01A#C031
(1694453908.306176) can0 02F#4036
(1694453908.306297) can0 058#7AF8
(1694453908.306415) can0 06D#00
(1694453908.306531) can0 083#06
(1694453908.306645) can0 098#00
(1694453908.393027) can0 024#0034
(1694453908.393143) can0 039#0034
(1694453908.393275) can0 043#68B8
(1694453908.393409) can0 062#40FA
(1694453908.393533) can0 077#1C
(1694453908.402973) can0 08D#01
(1694453908.403089) can0 0A2#00
(1694453908.403208) can0 0B4#00
(1694453908.406000) can0 01A#4034
(1694453908.406133) can0 02F#0033
(1694453908.406265) can0 058#F7FA
(1694453908.406384) can0 06D#00
(1694453908.406506) can0 083#06
(1694453908.406615) can0 098#00
(1694453908.439980) can0 266#08
(1694453908.440093) can0 27B#01
(1694453908.440214) can0 290#00
(1694453908.440347) can0 2A6#0200
(1694453908.440479) can0 2BB#F700
(1694453908.440588) can0 477#00
(1694453908.454979) can0 1BB#02
(1694453908.458988) can0 1B8#00
(1694453908.459096) can0 1A7#02
(1694453908.459212) can0 1B1#00
(1694453908.459329) can0 1C9#00
(1694453908.460989) can0 146#C09A
(1694453908.461103) can0 15A#01
(1694453908.461235) can0 16F#C0FB
(1694453908.461357) can0 183#35
(1694453908.461464) can0 18D#00
(1694453908.461582) can0 198#00
(1694453908.461694) can0 19A#01
(1694453908.461813) can0 1D3#01
(1694453908.493950) can0 024#8036
(1694453908.494080) can0 039#8036
(1694453908.494209) can0 043#A9B8
(1694453908.494348) can0 062#80FC
(1694453908.494468) can0 077#1C
(1694453908.502931) can0 08D#01
(1694453908.503036) can0 0A2#00
(1694453908.503161) can0 0B4#00
(1694453908.505948) can0 01A#C036
(1694453908.506082) can0 02F#C02F
(1694453908.506218) can0 058#F8FC
(1694453908.506339) can0 06D#00
(1694453908.506459) can0 083#06
(1694453908.506567) can0 098#00
(1694453908.594032) can0 024#0039
(1694453908.594121) can0 039#0039
(1694453908.594266) can0 043#EBB8
(1694453908.594399) can0 062#00FE
(1694453908.594513) can0 077#1C
(1694453908.602873) can0 08D#01
(1694453908.602953) can0 0A2#00
(1694453908.603078) can0 0B4#00
(1694453908.605876) can0 01A#8039
(1694453908.606008) can0 02F#C02C
(1694453908.606143) can0 058#7CFE
(1694453908.606257) can0 06D#00
(1694453908.606374) can0 083#06
(1694453908.606490) can0 098#00
(1694453908.693880) can0 024#C03B
(1694453908.693981) can0 039#C03B
(1694453908.694108) can0 043#2CB9
(1694453908.694242) can0 062#00FF
(1694453908.694355) can0 077#1C
(1694453908.702843) can0 08D#01
(1694453908.702921) can0 0A2#00
(1694453908.703046) can0 0B4#00
(1694453908.706786) can0 01A#003C
(1694453908.706921) can0 02F#C029
(1694453908.707057) can0 058#7FFF
(1694453908.707175) can0 06D#00
(1694453908.707291) can0 083#06
(1694453908.707405) can0 098#00
(1694453908.793781) can0 024#403E
(1694453908.793918) can0 039#403E
(1694453908.794044) can0 043#6EB9
(1694453908.794174) can0 062#C0FF
(1694453908.794304) can0 077#1C
(1694453908.802729) can0 08D#01
(1694453908.802840) can0 0A2#00
(1694453908.802956) can0 0B4#00
(1694453908.806750) can0 01A#803E
(1694453908.806883) can0 02F#C026
(1694453908.807017) can0 058#0200
(1694453908.807137) can0 06D#00
(1694453908.807248) can0 083#06
(1694453908.807366) can0 098#00
(1694453908.893730) can0 024#C040
(1694453908.893842) can0 039#C040
(1694453908.893971) can0 043#AFB9
(1694453908.894107) can0 062#C0FF
(1694453908.894223) can0 077#04
(1694453908.903667) can0 08D#01
(1694453908.903780) can0 0A2#00
(1694453908.903894) can0 0B4#00
(1694453908.906674) can0 01A#0041
(1694453908.906808) can0 02F#0024
(1694453908.906960) can0 058#0300
(1694453908.907064) can0 06D#00
(1694453908.907179) can0 083#02
(1694453908.907295) can0 098#00
(1694453908.953736) can0 25C#04
(1694453908.953843) can0 271#00
(1694453908.953956) can0 286#00
(1694453908.954074) can0 29C#00
(1694453908.954188) can0 2B1#01
(1694453908.955628) can0 1BB#02
(1694453908.959647) can0 1B8#00
(1694453908.959760) can0 1A7#00
(1694453908.959875) can0 1B1#00
(1694453908.959988) can0 1C9#00
(1694453908.960678) can0 146#00A1
(1694453908.960794) can0 15A#01
(1694453908.960928) can0 16F#80FF
(1694453908.961042) can0 183#42
(1694453908.961159) can0 18D#00
(1694453908.961273) can0 198#00
(1694453908.961387) can0 19A#01
(1694453908.961501) can0 1D3#01
(1694453908.993645) can0 024#4043
(1694453908.993776) can0 039#4043
(1694453908.993900) can0 043#F1B9
(1694453908.994039) can0 062#40FF
(1694453908.994157) can0 077#04
(1694453909.003651) can0 08D#01
(1694453909.003727) can0 0A2#00
(1694453909.003852) can0 0B4#00
(1694453909.006617) can0 01A#C043
(1694453909.006749) can0 02F#4021
(1694453909.006884) can0 058#83FF
(1694453909.007006) can0 06D#00
(1694453909.007127) can0 083#02
(1694453909.007233) can0 098#00
(1694453909.093625) can0 024#0046
(1694453909.093717) can0 039#0046
(1694453909.093858) can0 043#32BA
(1694453909.093998) can0 062#40FE
(1694453909.094112) can0 077#04
(1694453909.103550) can0 08D#01
(1694453909.103664) can0 0A2#00
(1694453909.103792) can0 0B4#00
(1694453909.106565) can0 01A#4046
(1694453909.106694) can0 02F#801E
(1694453909.106832) can0 058#82FE
(1694453909.106947) can0 06D#00
(1694453909.107070) can0 083#02
(1694453909.107176) can0 098#00
(1694453909.193554) can0 024#8048
(1694453909.193642) can0 039#8048
(1694453909.193785) can0 043#74BA
(1694453909.193914) can0 062#00FD
(1694453909.194029) can0 077#04
(1694453909.203537) can0 08D#01
(1694453909.203652) can0 0A2#00
(1694453909.203764) can0 0B4#00
(1694453909.206494) can0 01A#C048
(1694453909.206630) can0 02F#001C
(1694453909.206773) can0 058#01FD
(1694453909.206889) can0 06D#00
(1694453909.206999) can0 083#02
(1694453909.207113) can0 098#00
(1694453909.293513) can0 024#004B
(1694453909.293611) can0 039#004B
(1694453909.293749) can0 043#B5BA
(1694453909.293892) can0 062#00FB
(1694453909.293995) can0 077#04
(1694453909.303449) can0 08D#01
(1694453909.303559) can0 0A2#00
(1694453909.303673) can0 0B4#00
(1694453909.306442) can0 01A#404B
(1694453909.306582) can0 02F#8019
(1694453909.306715) can0 058#03FB
(1694453909.306828) can0 06D#00
(1694453909.306948) can0 083#02
(1694453909.307057) can0 098#00
(1694453909.393441) can0 024#804D
(1694453909.393551) can0 039#804D
(1694453909.393690) can0 043#F7BA
(1694453909.393818) can0 062#80F8
(1694453909.393940) can0 077#04
(1694453909.403423) can0 08D#01
(1694453909.403494) can0 0A2#00
(1694453909.403628) can0 0B4#00
(1694453909.406393) can0 01A#004E
(1694453909.406517) can0 02F#4017
(1694453909.406648) can0 058#88F8
(1694453909.406767) can0 06D#00
(1694453909.406884) can0 083#02
(1694453909.407001) can0 098#00
(1694453909.440422) can0 266#00
(1694453909.440526) can0 27B#01
(1694453909.440642) can0 290#00
(1694453909.440784) can0 2A6#0200
(1694453909.440907) can0 2BB#F200
(1694453909.441021) can0 477#00
(1694453909.455381) can0 1BB#02
(1694453909.459427) can0 1B8#00
(1694453909.459535) can0 1A7#00
(1694453909.459656) can0 1B1#00
(1694453909.459762) can0 1C9#00
(1694453909.460410) can0 146#80A7
(1694453909.460521) can0 15A#01
(1694453909.460653) can0 16F#C0F6
(1694453909.460774) can0 183#4F
(1694453909.460882) can0 18D#00
(1694453909.460997) can0 198#00
(1694453909.461116) can0 19A#01
(1694453909.461240) can0 1D3#01
(1694453909.493366) can0 024#0050
(1694453909.493498) can0 039#0050
(1694453909.493632) can0 043#38BB
(1694453909.493767) can0 062#C0F5
(1694453909.493877) can0 077#04
(1694453909.503369) can0 08D#01
(1694453909.503481) can0 0A2#00
(1694453909.503604) can0 0B4#00
(1694453909.506429) can0 01A#8050
(1694453909.506559) can0 02F#0015
(1694453909.506693) can0 058#93F5
(1694453909.506814) can0 06D#00
(1694453909.506935) can0 083#02
(1694453909.507041) can0 098#00
(1694453909.593338) can0 024#C052
(1694453909.593432) can0 039#C052
(1694453909.593571) can0 043#7ABB
(1694453909.593697) can0 062#40F2
(1694453909.593815) can0 077#04
(1694453909.603316) can0 08D#01
(1694453909.603422) can0 0A2#00
(1694453909.603545) can0 0B4#00
(1694453909.606272) can0 01A#0053
(1694453909.606406) can0 02F#C012
(1694453909.606548) can0 058#27F2
(1694453909.606655) can0 06D#00
(1694453909.606769) can0 083#02
(1694453909.606887) can0 098#00
(1694453909.693314) can0 024#4055
(1694453909.693395) can0 039#4055
(1694453909.693520) can0 043#BCBB
(1694453909.693648) can0 062#80EE
(1694453909.693762) can0 077#04
(1694453909.703261) can0 08D#01
(1694453909.703379) can0 0A2#00
(1694453909.703492) can0 0B4#00
(1694453909.706202) can0 01A#8055
(1694453909.706343) can0 02F#C010
(1694453909.706474) can0 058#48EE
(1694453909.706593) can0 06D#00
(1694453909.706709) can0 083#02
(1694453909.706825) can0 098#00
(1694453909.793201) can0 024#C057
(1694453909.793324) can0 039#C057
(1694453909.793454) can0 043#FDBB
(1694453909.793588) can0 062#40EA
(1694453909.793708) can0 077#04
(1694453909.803187) can0 08D#01
(1694453909.803296) can0 0A2#00
(1694453909.803407) can0 0B4#00
(1694453909.806156) can0 01A#4058
(1694453909.806295) can0 02F#C00E
(1694453909.806430) can0 058#FAE9
(1694453909.806552) can0 06D#00
(1694453909.806661) can0 083#02
(1694453909.806777) can0 098#00
(1694453909.893181) can0 024#405A
(1694453909.893314) can0 039#405A
(1694453909.893434) can0 043#3FBC
(1694453909.893576) can0 062#80E5
(1694453909.893683) can0 077#04
(1694453909.903111) can0 08D#01
(1694453909.903222) can0 0A2#00
(1694453909.903335) can0 0B4#00
(1694453909.906111) can0 01A#C05A
(1694453909.906250) can0 02F#000D
(1694453909.906384) can0 058#41E5
(1694453909.906505) can0 06D#00
(1694453909.906617) can0 083#02
(1694453909.906737) can0 098#00
(1694453909.953202) can0 25C#04
(1694453909.953273) can0 271#00
(1694453909.953413) can0 286#00
(1694453909.953524) can0 29C#00
(1694453909.953640) can0 2B1#01
(1694453909.955048) can0 1BB#02
(1694453909.959093) can0 1B8#00
(1694453909.959180) can0 1A7#00
(1694453909.959305) can0 1B1#00
(1694453909.959419) can0 1C9#00
(1694453909.960161) can0 146#00AE
(1694453909.960271) can0 15A#01
(1694453909.960405) can0 16F#40E2
(1694453909.960515) can0 183#5B
(1694453909.960632) can0 18D#00
(1694453909.960752) can0 198#00
(1694453909.960864) can0 19A#01
(1694453909.960984) can0 1D3#01
(1694453909.993108) can0 024#005D
(1694453909.993235) can0 039#005D
(1694453909.993373) can0 043#80BC
(1694453909.993515) can0 062#80E0
(1694453909.993625) can0 077#04
(1694453910.003042) can0 08D#01
(1694453910.003152) can0 0A2#00
(1694453910.003272) can0 0B4#00
(1694453910.006056) can0 01A#405D
(1694453910.006197) can0 02F#400B
(1694453910.006320) can0 058#21E0
(1694453910.006442) can0 06D#00
(1694453910.006566) can0 083#02
(1694453910.006671) can0 098#00
(1694453910.093075) can0 024#805F
(1694453910.093159) can0 039#805F
(1694453910.093303) can0 043#C2BC
(1694453910.093433) can0 062#00DB
(1694453910.093549) can0 077#04
(1694453910.102987) can0 08D#01
(1694453910.103095) can0 0A2#00
(1694453910.103217) can0 0B4#00
(1694453910.105993) can0 01A#C05F
(1694453910.106133) can0 02F#C009
(1694453910.106267) can0 058#A1DA
(1694453910.106379) can0 06D#00
(1694453910.106500) can0 083#02
(1694453910.106608) can0 098#00
(1694453910.194016) can0 024#0062
(1694453910.194135) can0 039#0062
(1694453910.194269) can0 043#03BD
(1694453910.194402) can0 062#40D5
(1694453910.194519) can0 077#04
(1694453910.202955) can0 08D#01
(1694453910.203060) can0 0A2#00
(1694453910.203174) can0 0B4#00
(1694453910.205941) can0 01A#4062
(1694453910.206085) can0 02F#4008
(1694453910.206207) can0 058#C4D4
(1694453910.206324) can0 06D#00
(1694453910.206441) can0 083#02
(1694453910.206555) can0 098#00
(1694453910.293914) can0 024#8064
(1694453910.294042) can0 039#8064
(1694453910.294175) can0 043#45BD
(1694453910.294317) can0 062#00CF
(1694453910.294429) can0 077#04
(1694453910.302882) can0 08D#01
(1694453910.302984) can0 0A2#00
(1694453910.303103) can0 0B4#00
(1694453910.305888) can0 01A#0065
(1694453910.306030) can0 02F#C006
(1694453910.306150) can0 058#93CE
(1694453910.306268) can0 06D#00
(1694453910.306384) can0 083#02
(1694453910.306500) can0 098#00
(1694453910.393866) can0 024#4067
(1694453910.393998) can0 039#4067
(1694453910.394128) can0 043#86BD
(1694453910.394261) can0 062#C0C8
(1694453910.394376) can0 077#04
(1694453910.402811) can0 08D#01
(1694453910.402917) can0 0A2#00
(1694453910.403033) can0 0B4#00
(1694453910.405819) can0 01A#8067
(1694453910.405961) can0 02F#8005
(1694453910.406083) can0 058#12C8
(1694453910.406201) can0 06D#00
(1694453910.406317) can0 083#02
(1694453910.406431) can0 098#00
(1694453910.439829) can0 266#00
(1694453910.439944) can0 27B#01
(1694453910.440061) can0 290#00
(1694453910.440202) can0 2A6#0100
(1694453910.440339) can0 2BB#C100
(1694453910.440451) can0 477#00
(1694453910.454795) can0 1BB#02
(1694453910.459781) can0 1B8#00
(1694453910.459887) can0 1A7#00
(1694453910.460001) can0 1B1#00
(1694453910.460116) can0 1C9#00
(1694453910.460836) can0 146#40B4
(1694453910.460950) can0 15A#01
(1694453910.461091) can0 16F#40C4
(1694453910.461202) can0 183#68
(1694453910.461320) can0 18D#00
(1694453910.461428) can0 198#00
(1694453910.461544) can0 19A#01
(1694453910.461656) can0 1D3#01
(1694453910.493790) can0 024#C069
(1694453910.493914) can0 039#C069
(1694453910.494050) can0 043#C8BD
(1694453910.494176) can0 062#00C2
(1694453910.494292) can0 077#04
(1694453910.502775) can0 08D#01
(1694453910.502881) can0 0A2#00
(1694453910.502998) can0 0B4#00
(1694453910.506793) can0 01A#006A
(1694453910.506933) can0 02F#8004
(1694453910.507061) can0 058#48C1
(1694453910.507175) can0 06D#00
(1694453910.507291) can0 083#02
(1694453910.507406) can0 098#00
(1694453910.593760) can0 024#406C
(1694453910.593891) can0 039#406C
(1694453910.594029) can0 043#09BE
(1694453910.594158) can0 062#00BB
(1694453910.594274) can0 077#04
(1694453910.603709) can0 08D#01
(1694453910.603823) can0 0A2#00
(1694453910.603940) can0 0B4#00
(1694453910.606764) can0 01A#806C
(1694453910.606895) can0 02F#8003
(1694453910.607033) can0 058#3CBA
(1694453910.607145) can0 06D#00
(1694453910.607262) can0 083#02
(1694453910.607378) can0 098#00
(1694453910.693713) can0 024#C06E
(1694453910.693840) can0 039#C06E
(1694453910.693984) can0 043#4BBE
(1694453910.694105) can0 062#C0B3
(1694453910.694222) can0 077#04
(1694453910.703650) can0 08D#01
(1694453910.703754) can0 0A2#00
(1694453910.703870) can0 0B4#00
(1694453910.706653) can0 01A#406F
(1694453910.706794) can0 02F#8002
(1694453910.706917) can0 058#F5B2
(1694453910.707035) can0 06D#00
(1694453910.707150) can0 083#02
(1694453910.707264) can0 098#00
(1694453910.793660) can0 024#8071
(1694453910.793785) can0 039#8071
(1694453910.793927) can0 043#8CBE
(1694453910.794050) can0 062#40AC
(1694453910.794165) can0 077#04
(1694453910.803601) can0 08D#01
(1694453910.803717) can0 0A2#00
(1694453910.803825) can0 0B4#00
(1694453910.806579) can0 01A#C071
(1694453910.806720) can0 02F#C001
(1694453910.806857) can0 058#7BAB
(1694453910.806969) can0 06D#00
(1694453910.807086) can0 083#02
(1694453910.807203) can0 098#00
(1694453910.893584) can0 024#0074
(1694453910.893715) can0 039#0074
(1694453910.893854) can0 043#CEBE
(1694453910.893992) can0 062#80A4
(1694453910.894096) can0 077#04
(1694453910.903539) can0 08D#01
(1694453910.903624) can0 0A2#00
(1694453910.903749) can0 0B4#00
(1694453910.906578) can0 01A#4074
(1694453910.906720) can0 02F#4001
(1694453910.906841) can0 058#D5A3
(1694453910.906959) can0 06D#00
(1694453910.907075) can0 083#02
(1694453910.907189) can0 098#00
(1694453910.953621) can0 25C#04
(1694453910.953697) can0 271#00
(1694453910.953822) can0 286#00
(1694453910.953940) can0 29C#00
(1694453910.954054) can0 2B1#01
(1694453910.955516) can0 1BB#02
(1694453910.959521) can0 1B8#00
(1694453910.959635) can0 1A7#00
(1694453910.959743) can0 1B1#00
(1694453910.959860) can0 1C9#00
(1694453910.960554) can0 146#C0BA
(1694453910.960667) can0 15A#01
(1694453910.960797) can0 16F#809F
(1694453910.960912) can0 183#75
(1694453910.961031) can0 18D#00
(1694453910.961142) can0 198#00
(1694453910.961258) can0 19A#01
(1694453910.961374) can0 1D3#01
(1694453910.993514) can0 024#8076
(1694453910.993643) can0 039#8076
(1694453910.993778) can0 043#0FBF
(1694453910.993916) can0 062#C09C
(1694453910.994028) can0 077#04
(1694453911.003488) can0 08D#01
(1694453911.003585) can0 0A2#00
(1694453911.003717) can0 0B4#00
(1694453911.006508) can0 01A#C076
(1694453911.006646) can0 02F#C000
(1694453911.006780) can0 058#0B9C
(1694453911.006895) can0 06D#00
(1694453911.007018) can0 083#02
(1694453911.007124) can0 098#00
(1694453911.093479) can0 024#0079
(1694453911.093609) can0 039#0079
(1694453911.093737) can0 043#51BF
(1694453911.093876) can0 062#0095
(1694453911.093990) can0 077#04
(1694453911.103430) can0 08D#01
(1694453911.103539) can0 0A2#00
(1694453911.103653) can0 0B4#00
(1694453911.106412) can0 01A#8079
(1694453911.106558) can0 02F#4000
(1694453911.106677) can0 058#2594
(1694453911.106797) can0 06D#00
(1694453911.106912) can0 083#02
(1694453911.107026) can0 098#00
(1694453911.193385) can0 024#807B
(1694453911.193502) can0 039#807B
(1694453911.193641) can0 043#93BF
(1694453911.193774) can0 062#008D
(1694453911.193889) can0 077#04
(1694453911.203375) can0 08D#01
(1694453911.203479) can0 0A2#00
(1694453911.203596) can0 0B4#00
(1694453911.206379) can0 01A#007C
(1694453911.206523) can0 02F#0000
(1694453911.206642) can0 058#2A8C
(1694453911.206763) can0 06D#00
(1694453911.206878) can0 083#02
(1694453911.206992) can0 098#00
(1694453911.293361) can0 024#407E
(1694453911.293483) can0 039#407E
(1694453911.293621) can0 043#D4BF
(1694453911.293753) can0 062#0085
(1694453911.293866) can0 077#04
(1694453911.303339) can0 08D#01
(1694453911.303443) can0 0A2#00
(1694453911.303559) can0 0B4#00
(1694453911.306299) can0 01A#807E
(1694453911.306443) can0 02F#0000
(1694453911.306566) can0 058#2384
(1694453911.306684) can0 06D#00
(1694453911.306799) can0 083#02
(1694453911.306916) can0 098#00
(1694453911.393332) can0 024#C080
(1694453911.393463) can0 039#C080
(1694453911.393597) can0 043#16C0
(1694453911.393752) can0 062#007D
(1694453911.393879) can0 077#18
(1694453911.403297) can0 08D#00
(1694453911.403407) can0 0A2#00
(1694453911.403516) can0 0B4#00
(1694453911.406265) can0 01A#0081
(1694453911.406386) can0 02F#0000
(1694453911.406520) can0 058#187C
(1694453911.406637) can0 06D#00
(1694453911.406753) can0 083#04
(1694453911.406868) can0 098#00
(1694453911.440281) can0 266#08
(1694453911.440384) can0 27B#00
(1694453911.440530) can0 290#00
(1694453911.440650) can0 2A6#0100
(1694453911.440803) can0 2BB#7600
(1694453911.440896) can0 477#00
(1694453911.455246) can0 1BB#00
(1694453911.459216) can0 1B8#00
(1694453911.459332) can0 1A7#02
(1694453911.459445) can0 1B1#00
(1694453911.459560) can0 1C9#00
(1694453911.460278) can0 146#00C1
(1694453911.460393) can0 15A#00
(1694453911.460534) can0 16F#8077
(1694453911.460639) can0 183#82
(1694453911.460762) can0 18D#00
(1694453911.460871) can0 198#00
(1694453911.460988) can0 19A#00
(1694453911.461100) can0 1D3#00
(1694453911.493222) can0 024#4083
(1694453911.493352) can0 039#4083
(1694453911.493492) can0 043#57C0
(1694453911.493632) can0 062#0075
(1694453911.493732) can0 077#18
(1694453911.503222) can0 08D#00
(1694453911.503329) can0 0A2#00
(1694453911.503443) can0 0B4#00
(1694453911.506196) can0 01A#C083
(1694453911.506328) can0 02F#0000
(1694453911.506462) can0 058#1174
(1694453911.506581) can0 06D#00
(1694453911.506695) can0 083#04
(1694453911.506810) can0 098#00
(1694453911.593206) can0 024#C085
(1694453911.593326) can0 039#C085
(1694453911.593463) can0 043#99C0
(1694453911.593595) can0 062#006D
(1694453911.593708) can0 077#18
(1694453911.603132) can0 08D#00
(1694453911.603236) can0 0A2#00
(1694453911.603352) can0 0B4#00
(1694453911.606158) can0 01A#4086
(1694453911.606312) can0 02F#4000
(1694453911.606424) can0 058#166C
(1694453911.606550) can0 06D#00
(1694453911.606660) can0 083#04
(1694453911.606773) can0 098#00
(1694453911.693142) can0 024#8088
(1694453911.693266) can0 039#8088
(1694453911.693398) can0 043#DAC0
(1694453911.693536) can0 062#0065
(1694453911.693651) can0 077#18
(1694453911.703103) can0 08D#00
(1694453911.703205) can0 0A2#00
(1694453911.703322) can0 0B4#00
(1694453911.706088) can0 01A#C088
(1694453911.706231) can0 02F#C000
(1694453911.706355) can0 058#2F64
(1694453911.706476) can0 06D#00
(1694453911.706590) can0 083#04
(1694453911.706704) can0 098#00
(1694453911.751098) can0 420#00
(1694453911.751171) can0 457#00
(1694453911.751318) can0 461#00
(1694453911.751426) can0 46C#00
(1694453911.793060) can0 024#008B
(1694453911.793190) can0 039#008B
(1694453911.793325) can0 043#1CC1
(1694453911.793469) can0 062#405D
(1694453911.793572) can0 077#18
(1694453911.803020) can0 08D#00
(1694453911.803123) can0 0A2#00
(1694453911.803240) can0 0B4#00
(1694453911.806007) can0 01A#408B
(1694453911.806149) can0 02F#4001
(1694453911.806269) can0 058#645C
(1694453911.806386) can0 06D#00
(1694453911.806506) can0 083#04
(1694453911.806616) can0 098#00
(1694453911.892992) can0 024#808D
(1694453911.893120) can0 039#808D
(1694453911.893250) can0 043#5DC1
(1694453911.893395) can0 062#8055
(1694453911.893496) can0 077#18
(1694453911.902955) can0 08D#00
(1694453911.903059) can0 0A2#00
(1694453911.903176) can0 0B4#00
(1694453911.905931) can0 01A#C08D
(1694453911.906074) can0 02F#C001
(1694453911.906196) can0 058#BD54
(1694453911.906314) can0 06D#00
(1694453911.906436) can0 083#04
(1694453911.906546) can0 098#00
(1694453911.953021) can0 25C#08
(1694453911.953112) can0 271#00
(1694453911.953242) can0 286#00
(1694453911.953356) can0 29C#00
(1694453911.953469) can0 2B1#00
(1694453911.954966) can0 1BB#00
(1694453911.958972) can0 1B8#00
(1694453911.959091) can0 1A7#02
(1694453911.959200) can0 1B1#00
(1694453911.959315) can0 1C9#00
(1694453911.960935) can0 146#80C7
(1694453911.961052) can0 15A#00
(1694453911.961194) can0 16F#8050
(1694453911.961298) can0 183#8E
(1694453911.961416) can0 18D#00
(1694453911.961529) can0 198#00
(1694453911.961643) can0 19A#00
(1694453911.961770) can0 1D3#00
(1694453911.993921) can0 024#0090
(1694453911.994052) can0 039#0090
(1694453911.994187) can0 043#9FC1
(1694453911.994327) can0 062#004E
(1694453911.994437) can0 077#18
(1694453912.002898) can0 08D#00
(1694453912.003015) can0 0A2#00
(1694453912.003128) can0 0B4#00
(1694453912.005899) can0 01A#8090
(1694453912.006043) can0 02F#8002
(1694453912.006168) can0 058#424D
(1694453912.006286) can0 06D#00
(1694453912.006414) can0 083#04
(1694453912.006519) can0 098#00
(1694453912.010889) can0 3D4#82
(1694453912.011002) can0 3DE#00
(1694453912.011123) can0 482#00
(1694453912.093904) can0 024#C092
(1694453912.093994) can0 039#C092
(1694453912.094141) can0 043#E0C1
(1694453912.094277) can0 062#C046
(1694453912.094383) can0 077#18
(1694453912.102879) can0 08D#00
(1694453912.102989) can0 0A2#00
(1694453912.103110) can0 0B4#00
(1694453912.105831) can0 01A#0093
(1694453912.105968) can0 02F#8003
(1694453912.106102) can0 058#FB45
(1694453912.106223) can0 06D#00
(1694453912.106334) can0 083#04
(1694453912.106446) can0 098#00
(1694453912.193843) can0 024#4095
(1694453912.193977) can0 039#4095
(1694453912.194100) can0 043#22C2
(1694453912.194234) can0 062#C03F
(1694453912.194355) can0 077#18
(1694453912.202780) can0 08D#00
(1694453912.202891) can0 0A2#00
(1694453912.203012) can0 0B4#00
(1694453912.206818) can0 01A#8095
(1694453912.206942) can0 02F#8004
(1694453912.207072) can0 058#EE3E
(1694453912.207191) can0 06D#00
(1694453912.207315) can0 083#04
(1694453912.207421) can0 098#00
(1694453912.293803) can0 024#C097
(1694453912.293902) can0 039#C097
(1694453912.294040) can0 043#63C2
(1694453912.294170) can0 062#C038
(1694453912.294288) can0 077#18
(1694453912.302734) can0 08D#00
(1694453912.302824) can0 0A2#00
(1694453912.302950) can0 0B4#00
(1694453912.306712) can0 01A#0098
(1694453912.306869) can0 02F#8005
(1694453912.306984) can0 058#2238
(1694453912.307101) can0 06D#00
(1694453912.307221) can0 083#04
(1694453912.307324) can0 098#00
(1694453912.393711) can0 024#409A
(1694453912.393828) can0 039#409A
(1694453912.393967) can0 043#A5C2
(1694453912.394094) can0 062#4032
(1694453912.394203) can0 077#18
(1694453912.403690) can0 08D#00
(1694453912.403804) can0 0A2#00
(1694453912.403921) can0 0B4#00
(1694453912.406702) can0 01A#C09A
(1694453912.406838) can0 02F#C006
(1694453912.406970) can0 058#A031
(1694453912.407091) can0 06D#00
(1694453912.407207) can0 083#04
(1694453912.407319) can0 098#00
(1694453912.440690) can0 266#08
(1694453912.440806) can0 27B#00
(1694453912.440926) can0 290#00
(1694453912.441069) can0 2A6#0000
(1694453912.441187) can0 2BB#2E00
(1694453912.441303) can0 477#00
(1694453912.455645) can0 1BB#00
(1694453912.459763) can0 1B8#00
(1694453912.459868) can0 1A7#02
(1694453912.459983) can0 1B1#00
(1694453912.460099) can0 1C9#00
(1694453912.460688) can0 146#00CE
(1694453912.460804) can0 15A#00
(1694453912.460945) can0 16F#002E
(1694453912.461049) can0 183#9B
(1694453912.461173) can0 18D#00
(1694453912.461282) can0 198#00
(1694453912.461395) can0 19A#00
(1694453912.461510) can0 1D3#00
(1694453912.493655) can0 024#009D
(1694453912.493786) can0 039#009D
(1694453912.493921) can0 043#E6C2
(1694453912.494058) can0 062#002C
(1694453912.494171) can0 077#18
(1694453912.503619) can0 08D#00
(1694453912.503734) can0 0A2#00
(1694453912.503852) can0 0B4#00
(1694453912.506671) can0 01A#409D
(1694453912.506813) can0 02F#0008
(1694453912.506947) can0 058#6C2B
(1694453912.507057) can0 06D#00
(1694453912.507171) can0 083#04
(1694453912.507284) can0 098#00
(1694453912.593648) can0 024#809F
(1694453912.593746) can0 039#809F
(1694453912.593894) can0 043#28C3
(1694453912.594028) can0 062#4026
(1694453912.594139) can0 077#18
(1694453912.603548) can0 08D#00
(1694453912.603652) can0 0A2#00
(1694453912.603766) can0 0B4#00
(1694453912.606625) can0 01A#C09F
(1694453912.606768) can0 02F#8009
(1694453912.606896) can0 058#8E25
(1694453912.607009) can0 06D#00
(1694453912.607132) can0 083#04
(1694453912.607244) can0 098#00
(1694453912.693568) can0 024#00A2
(1694453912.693691) can0 039#00A2
(1694453912.693824) can0 043#6AC3
(1694453912.693960) can0 062#8020
(1694453912.694070) can0 077#18
(1694453912.703496) can0 08D#00
(1694453912.703602) can0 0A2#00
(1694453912.703735) can0 0B4#00
(1694453912.706498) can0 01A#40A2
(1694453912.706632) can0 02F#400B
(1694453912.706768) can0 058#0C20
(1694453912.706890) can0 06D#00
(1694453912.707022) can0 083#04
(1694453912.707122) can0 098#00
(1694453912.793481) can0 024#80A4
(1694453912.793606) can0 039#80A4
(1694453912.793732) can0 043#ABC3
(1694453912.793867) can0 062#801B
(1694453912.793985) can0 077#18
(1694453912.803442) can0 08D#00
(1694453912.803548) can0 0A2#00
(1694453912.803664) can0 0B4#00
(1694453912.806425) can0 01A#00A5
(1694453912.806569) can0 02F#000D
(1694453912.806697) can0 058#EA1A
(1694453912.806812) can0 06D#00
(1694453912.806928) can0 083#04
(1694453912.807056) can0 098#00
(1694453912.893418) can0 024#00A7
(1694453912.893545) can0 039#00A7
(1694453912.893687) can0 043#EDC3
(1694453912.893811) can0 062#C016
(1694453912.893924) can0 077#18
(1694453912.903393) can0 08D#00
(1694453912.903499) can0 0A2#00
(1694453912.903617) can0 0B4#00
(1694453912.906381) can0 01A#80A7
(1694453912.906524) can0 02F#C00E
(1694453912.906645) can0 058#2F16
(1694453912.906763) can0 06D#00
(1694453912.906879) can0 083#04
(1694453912.906996) can0 098#00
(1694453912.953395) can0 25C#08
(1694453912.953503) can0 271#00
(1694453912.953620) can0 286#00
(1694453912.953735) can0 29C#00
(1694453912.953851) can0 2B1#00
(1694453912.955356) can0 1BB#00
(1694453912.959368) can0 1B8#00
(1694453912.959473) can0 1A7#02
(1694453912.959590) can0 1B1#00
(1694453912.959706) can0 1C9#00
(1694453912.960406) can0 146#40D4
(1694453912.960522) can0 15A#00
(1694453912.960663) can0 16F#C013
(1694453912.960767) can0 183#A8
(1694453912.960891) can0 18D#00
(1694453912.960998) can0 198#00
(1694453912.961113) can0 19A#00
(1694453912.961227) can0 1D3#00
(1694453912.993365) can0 024#C0A9
(1694453912.993488) can0 039#C0A9
(1694453912.993631) can0 043#2EC4
(1694453912.993755) can0 062#4012
(1694453912.993868) can0 077#18
(1694453913.003310) can0 08D#00
(1694453913.003426) can0 0A2#00
(1694453913.003534) can0 0B4#00
(1694453913.006335) can0 01A#00AA
(1694453913.006480) can0 02F#C010
(1694453913.006603) can0 058#DF11
(1694453913.006722) can0 06D#00
(1694453913.006837) can0 083#04
(1694453913.006951) can0 098#00
(1694453913.093316) can0 024#40AC
(1694453913.093440) can0 039#40AC
(1694453913.093578) can0 043#70C4
(1694453913.093720) can0 062#400E
(1694453913.093821) can0 077#18
(1694453913.103268) can0 08D#00
(1694453913.103375) can0 0A2#00
(1694453913.103488) can0 0B4#00
(1694453913.106288) can0 01A#80AC
(1694453913.106419) can0 02F#C012
(1694453913.106558) can0 058#FD0D
(1694453913.106669) can0 06D#00
(1694453913.106786) can0 083#04
(1694453913.106902) can0 098#00
(1694453913.193292) can0 024#C0AE
(1694453913.193419) can0 039#C0AE
(1694453913.193537) can0 043#B1C4
(1694453913.193678) can0 062#C00A
(1694453913.193781) can0 077#18
(1694453913.203231) can0 08D#00
(1694453913.203347) can0 0A2#00
(1694453913.203464) can0 0B4#00
(1694453913.206209) can0 01A#40AF
(1694453913.206350) can0 02F#C014
(1694453913.206474) can0 058#8F0A
(1694453913.206594) can0 06D#00
(1694453913.206707) can0 083#04
(1694453913.206823) can0 098#00
(1694453913.293254) can0 024#40B1
(1694453913.293368) can0 039#40B1
(1694453913.293499) can0 043#F3C4
(1694453913.293631) can0 062#C007
(1694453913.293745) can0 077#18
(1694453913.303166) can0 08D#00
(1694453913.303281) can0 0A2#00
(1694453913.303391) can0 0B4#00
(1694453913.306158) can0 01A#C0B1
(1694453913.306301) can0 02F#0017
(1694453913.306426) can0 058#9807
(1694453913.306543) can0 06D#00
(1694453913.306660) can0 083#04
(1694453913.306774) can0 098#00
(1694453913.393121) can0 024#00B4
(1694453913.393259) can0 039#00B4
(1694453913.393377) can0 043#34C5
(1694453913.393512) can0 062#4005
(1694453913.393626) can0 077#18
(1694453913.403117) can0 08D#00
(1694453913.403220) can0 0A2#00
(1694453913.403336) can0 0B4#00
(1694453913.406089) can0 01A#40B4
(1694453913.406221) can0 02F#8019
(1694453913.406361) can0 058#1B05
(1694453913.406473) can0 06D#00
(1694453913.406590) can0 083#04
(1694453913.406706) can0 098#00
(1694453913.440245) can0 266#08
(1694453913.440416) can0 27B#00
(1694453913.440545) can0 290#00
(1694453913.440673) can0 2A6#0000
(1694453913.440807) can0 2BB#0400
(1694453913.440928) can0 477#00
(1694453913.455102) can0 1BB#00
(1694453913.459076) can0 1B8#00
(1694453913.459180) can0 1A7#02
(1694453913.459298) can0 1B1#00
(1694453913.459415) can0 1C9#00
(1694453913.460119) can0 146#C0DA
(1694453913.460233) can0 15A#00
(1694453913.460373) can0 16F#C003
(1694453913.460476) can0 183#B5
(1694453913.460595) can0 18D#00
(1694453913.460709) can0 198#00
(1694453913.460823) can0 19A#00
(1694453913.460936) can0 1D3#00
(1694453913.493080) can0 024#80B6
(1694453913.493205) can0 039#80B6
(1694453913.493335) can0 043#76C5
(1694453913.493471) can0 062#4003
(1694453913.493582) can0 077#18
(1694453913.503068) can0 08D#00
(1694453913.503185) can0 0A2#00
(1694453913.503304) can0 0B4#00
(1694453913.506049) can0 01A#C0B6
(1694453913.506192) can0 02F#001C
(1694453913.506330) can0 058#1903
(1694453913.506443) can0 06D#00
(1694453913.506559) can0 083#04
(1694453913.506675) can0 098#00
(1694453913.593013) can0 024#00B9
(1694453913.593136) can0 039#00B9
(1694453913.593281) can0 043#B7C5
(1694453913.593405) can0 062#C001
(1694453913.593516) can0 077#18
(1694453913.602988) can0 08D#00
(1694453913.603095) can0 0A2#00
(1694453913.603208) can0 0B4#00
(1694453913.605980) can0 01A#40B9
(1694453913.606123) can0 02F#801E
(1694453913.606246) can0 058#9601
(1694453913.606363) can0 06D#00
(1694453913.606479) can0 083#04
(1694453913.606593) can0 098#00
(1694453913.693969) can0 024#80BB
(1694453913.694076) can0 039#80BB
(1694453913.694211) can0 043#F9C5
(1694453913.694348) can0 062#8000
(1694453913.694465) can0 077#18
(1694453913.702918) can0 08D#00
(1694453913.703022) can0 0A2#00
(1694453913.703136) can0 0B4#00
(1694453913.705968) can0 01A#00BC
(1694453913.706111) can0 02F#4021
(1694453913.706234) can0 058#9300
(1694453913.706352) can0 06D#00
(1694453913.706468) can0 083#04
(1694453913.706582) can0 098#00
(1694453913.793912) can0 024#40BE
(1694453913.794037) can0 039#40BE
(1694453913.794172) can0 043#3AC6
(1694453913.794313) can0 062#0000
(1694453913.794426) can0 077#18
(1694453913.802889) can0 08D#00
(1694453913.802992) can0 0A2#00
(1694453913.803117) can0 0B4#00
(1694453913.805880) can0 01A#80BE
(1694453913.806023) can0 02F#0024
(1694453913.806148) can0 058#1000
(1694453913.806268) can0 06D#00
(1694453913.806381) can0 083#04
(1694453913.806495) can0 098#00
(1694453913.893841) can0 024#C0C0
(1694453913.893994) can0 039#C0C0
(1694453913.894102) can0 043#7CC6
(1694453913.894246) can0 062#0000
(1694453913.894359) can0 077#00
(1694453913.902857) can0 08D#00
(1694453913.902962) can0 0A2#00
(1694453913.903074) can0 0B4#00
(1694453913.905827) can0 01A#00C1
(1694453913.905970) can0 02F#C026
(1694453913.906107) can0 058#0F00
(1694453913.906221) can0 06D#00
(1694453913.906338) can0 083#00
(1694453913.906454) can0 098#00
(1694453913.953892) can0 25C#00
(1694453913.953997) can0 271#00
(1694453913.954113) can0 286#00
(1694453913.954228) can0 29C#00
(1694453913.954342) can0 2B1#00
(1694453913.954804) can0 1BB#00
(1694453913.959806) can0 1B8#00
(1694453913.959908) can0 1A7#00
(1694453913.960027) can0 1B1#00
(1694453913.960139) can0 1C9#00
(1694453913.960808) can0 146#00E1
(1694453913.960922) can0 15A#00
(1694453913.961063) can0 16F#4000
(1694453913.961175) can0 183#C1
(1694453913.961304) can0 18D#00
(1694453913.961409) can0 198#00
(1694453913.961516) can0 19A#00
(1694453913.961630) can0 1D3#00
(1694453913.993774) can0 024#40C3
(1694453913.993899) can0 039#40C3
(1694453913.994042) can0 043#BDC6
(1694453913.994170) can0 062#4000
(1694453913.994290) can0 077#00
(1694453914.002785) can0 08D#00
(1694453914.002895) can0 0A2#00
(1694453914.003004) can0 0B4#00
(1694453914.006878) can0 01A#80C3
(1694453914.007007) can0 02F#C029
(1694453914.007140) can0 058#8F00
(1694453914.007260) can0 06D#00
(1694453914.007377) can0 083#00
(1694453914.007491) can0 098#00
(1694453914.093734) can0 024#C0C5
(1694453914.093864) can0 039#C0C5
(1694453914.094004) can0 043#FFC6
(1694453914.094133) can0 062#4001
(1694453914.094251) can0 077#00
(1694453914.103722) can0 08D#00
(1694453914.103829) can0 0A2#00
(1694453914.103945) can0 0B4#00
(1694453914.106884) can0 01A#40C6
(1694453914.107026) can0 02F#C02C
(1694453914.107153) can0 058#9001
(1694453914.107268) can0 06D#00
(1694453914.107386) can0 083#00
(1694453914.107500) can0 098#00
(1694453914.193655) can0 024#80C8
(1694453914.193786) can0 039#80C8
(1694453914.193925) can0 043#41C7
(1694453914.194074) can0 062#C002
(1694453914.194186) can0 077#00
(1694453914.203657) can0 08D#00
(1694453914.203768) can0 0A2#00
(1694453914.203883) can0 0B4#00
(1694453914.206747) can0 01A#C0C8
(1694453914.206905) can0 02F#C02F
(1694453914.207046) can0 058#1003
(1694453914.207161) can0 06D#00
(1694453914.207279) can0 083#00
(1694453914.207396) can0 098#00
(1694453914.293610) can0 024#00CB
(1694453914.293741) can0 039#00CB
(1694453914.293875) can0 043#82C7
(1694453914.294014) can0 062#C004
(1694453914.294129) can0 077#00
(1694453914.303588) can0 08D#00
(1694453914.303692) can0 0A2#00
(1694453914.303826) can0 0B4#00
(1694453914.306588) can0 01A#40CB
(1694453914.306716) can0 02F#0033
(1694453914.306854) can0 058#0F05
(1694453914.306969) can0 06D#00
(1694453914.307087) can0 083#00
(1694453914.307201) can0 098#00
(1694453914.393549) can0 024#80CD
(1694453914.393677) can0 039#80CD
(1694453914.393821) can0 043#C4C7
(1694453914.393947) can0 062#0007
(1694453914.394067) can0 077#00
(1694453914.403521) can0 08D#00
(1694453914.403607) can0 0A2#00
(1694453914.403733) can0 0B4#00
(1694453914.406524) can0 01A#C0CD
(1694453914.406666) can0 02F#4036
(1694453914.406789) can0 058#8A07
(1694453914.406910) can0 06D#00
(1694453914.407026) can0 083#00
